# vsim -c tb_top -do "vsim -Q -timescale 1ns/1ns -access +rw +UVM_TESTNAME=ahb_apb_bridge_burst_read_test +UVM_VERBOSITY=UVM_NONE -coverage all -covfile covfile.ccf -covdut ahb2apb -uvmnocdnsextra work.top; run -all; quit" 
# Start time: 21:03:08 on Mar 04,2025
# ** Note: (vsim-3812) Design is being optimized...
# //  Questa Sim-64
# //  Version 2021.3_1 linux_x86_64 Aug 15 2021
# //
# //  Copyright 1991-2021 Mentor Graphics Corporation
# //  All Rights Reserved.
# //
# //  QuestaSim and its associated documentation contain trade
# //  secrets and commercial or financial information that are the property of
# //  Mentor Graphics Corporation and are privileged, confidential,
# //  and exempt from disclosure under the Freedom of Information Act,
# //  5 U.S.C. Section 552. Furthermore, this information
# //  is prohibited from disclosure under the Trade Secrets Act,
# //  18 U.S.C. Section 1905.
# //
# Loading sv_std.std
# Loading mtiUvm.uvm_pkg(fast)
# Loading work.tb_top_sv_unit(fast)
# Loading mtiUvm.questa_uvm_pkg(fast)
# Loading work.tb_top(fast)
# Loading work.Bridge_Top(fast)
# Loading work.ahb_intf(fast)
# Loading work.apb_intf(fast)
# Loading /pkgs/mentor/questa/2021.3_1/questasim/uvm-1.1d/linux_x86_64/uvm_dpi.so
# vsim -Q -timescale 1ns/1ns -access +rw +UVM_TESTNAME=ahb_apb_bridge_burst_read_test +UVM_VERBOSITY=UVM_NONE -coverage all -covfile covfile.ccf -covdut ahb2apb -uvmnocdnsextra work.top
# ** UI-Msg: (vish-3296) Unknown option '-Q'.
# Use the -help option for complete vsim usage.
# ** UI-Msg: (vish-3296) Unknown option '-timescale'.
# Use the -help option for complete vsim usage.
# ** UI-Msg: (vish-3296) Unknown option '-access'.
# Use the -help option for complete vsim usage.
# ** UI-Msg: (vish-3296) Unknown option '-covfile'.
# Use the -help option for complete vsim usage.
# ** UI-Msg: (vish-3296) Unknown option '-covdut'.
# Use the -help option for complete vsim usage.
# ** UI-Msg: (vish-3296) Unknown option '-uvmnocdnsextra'.
# Use the -help option for complete vsim usage.
# Error loading design
#  run -all
# ----------------------------------------------------------------
# UVM-1.1d
# (C) 2007-2013 Mentor Graphics Corporation
# (C) 2007-2013 Cadence Design Systems, Inc.
# (C) 2006-2013 Synopsys, Inc.
# (C) 2011-2013 Cypress Semiconductor Corp.
# ----------------------------------------------------------------
# 
#   ***********       IMPORTANT RELEASE NOTES         ************
# 
#   You are using a version of the UVM library that has been compiled
#   with `UVM_NO_DEPRECATED undefined.
#   See http://www.eda.org/svdb/view.php?id=3313 for more details.
# 
#   You are using a version of the UVM library that has been compiled
#   with `UVM_OBJECT_MUST_HAVE_CONSTRUCTOR undefined.
#   See http://www.eda.org/svdb/view.php?id=3770 for more details.
# 
#       (Specify +UVM_NO_RELNOTES to turn off this notice)
# 
# UVM_INFO verilog_src/questa_uvm_pkg-1.2/src/questa_uvm_pkg.sv(277) @ 0: reporter [Questa UVM] QUESTA_UVM-1.2.3
# UVM_INFO verilog_src/questa_uvm_pkg-1.2/src/questa_uvm_pkg.sv(278) @ 0: reporter [Questa UVM]  questa_uvm::init(+struct)
# UVM_INFO @ 0: reporter [RNTST] Running test ahb_apb_single_read_test...
# UVM_INFO @ 0: reporter [UVMTOP] UVM testbench topology:
# ------------------------------------------------------------------
# Name                       Type                        Size  Value
# ------------------------------------------------------------------
# uvm_test_top               ahb_apb_single_read_test    -     @477 
#   env_h                    ahb_apb_env                 -     @491 
#     ahb_agent_h            ahb_agent                   -     @507 
#       drv_h                ahb_driver                  -     @643 
#         rsp_port           uvm_analysis_port           -     @658 
#         seq_item_port      uvm_seq_item_pull_port      -     @650 
#       mon_h                ahb_monitor                 -     @636 
#         monitor_port       uvm_analysis_port           -     @777 
#       sequencer_h          ahb_sequencer               -     @666 
#         rsp_export         uvm_analysis_export         -     @673 
#         seq_item_export    uvm_seq_item_pull_imp       -     @767 
#         arbitration_queue  array                       0     -    
#         lock_queue         array                       0     -    
#         num_last_reqs      integral                    32    'd1  
#         num_last_rsps      integral                    32    'd1  
#     apb_agent_h            apb_agent                   -     @514 
#       drv_h                apb_driver                  -     @799 
#         rsp_port           uvm_analysis_port           -     @814 
#         seq_item_port      uvm_seq_item_pull_port      -     @806 
#       mon_h                apb_monitor                 -     @792 
#         monitor_port       uvm_analysis_port           -     @933 
#       sequencer_h          apb_sequencer               -     @822 
#         rsp_export         uvm_analysis_export         -     @829 
#         seq_item_export    uvm_seq_item_pull_imp       -     @923 
#         arbitration_queue  array                       0     -    
#         lock_queue         array                       0     -    
#         num_last_reqs      integral                    32    'd1  
#         num_last_rsps      integral                    32    'd1  
#     sb_h                   ahb_apb_scoreboard          -     @521 
#       ahb_fifo             uvm_tlm_analysis_fifo #(T)  -     @528 
#         analysis_export    uvm_analysis_imp            -     @567 
#         get_ap             uvm_analysis_port           -     @559 
#         get_peek_export    uvm_get_peek_imp            -     @543 
#         put_ap             uvm_analysis_port           -     @551 
#         put_export         uvm_put_imp                 -     @535 
#       apb_fifo             uvm_tlm_analysis_fifo #(T)  -     @575 
#         analysis_export    uvm_analysis_imp            -     @614 
#         get_ap             uvm_analysis_port           -     @606 
#         get_peek_export    uvm_get_peek_imp            -     @590 
#         put_ap             uvm_analysis_port           -     @598 
#         put_export         uvm_put_imp                 -     @582 
# ------------------------------------------------------------------
# 
# UVM_INFO ahb_sequence.sv(134) @ 0: uvm_test_top.env_h.ahb_agent_h.sequencer_h@@ahb_seq_h [AHB_SINGLE_READ] Starting single-read constraints
# UVM_INFO apb_sequence.sv(92) @ 0: uvm_test_top.env_h.apb_agent_h.sequencer_h@@apb_seq_h [APB_SINGLE_READ] Generating read sequences with PSLVERR=0 for 3 times
# UVM_INFO ahb_sequence.sv(139) @ 0: uvm_test_top.env_h.ahb_agent_h.sequencer_h@@ahb_seq_h [AHB_SINGLE_READ] Forcing (HRESETn=0, HWRITE=0, HTRANS=00)
# UVM_INFO ahb_sequence_item.sv(53) @ 0: uvm_test_top.env_h.ahb_agent_h.sequencer_h@@ahb_seq_h.req [AHB_SEQUENCE_ITEM] Transaction [1]: ------------------------------------------------------------------------------------------------------------
# Name                           Type               Size  Value                                               
# ------------------------------------------------------------------------------------------------------------
# req                            ahb_sequence_item  -     @952                                                
#   begin_time                   time               64    0                                                   
#   depth                        int                32    'd2                                                 
#   parent sequence (name)       string             9     ahb_seq_h                                           
#   parent sequence (full name)  string             52    uvm_test_top.env_h.ahb_agent_h.sequencer_h.ahb_seq_h
#   sequencer                    string             42    uvm_test_top.env_h.ahb_agent_h.sequencer_h          
#   RESETn                       integral           1     'd0                                                 
#   HADDR                        integral           32    'h8a2dfab5                                          
#   HTRANS                       integral           2     'd0                                                 
#   HWRITE                       integral           1     'd0                                                 
#   HWDATA                       integral           32    'h1b1351e1                                          
#   HSELAHB                      integral           1     1                                                   
#   HREADY                       integral           1     'd0                                                 
# ------------------------------------------------------------------------------------------------------------
# 
# UVM_INFO apb_sequence.sv(96) @ 0: uvm_test_top.env_h.apb_agent_h.sequencer_h@@apb_seq_h [APB_SINGLE_READ] Forcing PSLVERR=0 in single-read iteration
# UVM_INFO apb_driver.sv(52) @ 5: uvm_test_top.env_h.apb_agent_h.drv_h [apb_driver] APB driver delivered Tx: 
# ------------------------------------------------------------------------------------------------------------
# Name                           Type               Size  Value                                               
# ------------------------------------------------------------------------------------------------------------
# req                            apb_sequence_item  -     @956                                                
#   begin_time                   time               64    0                                                   
#   depth                        int                32    'd2                                                 
#   parent sequence (name)       string             9     apb_seq_h                                           
#   parent sequence (full name)  string             52    uvm_test_top.env_h.apb_agent_h.sequencer_h.apb_seq_h
#   sequencer                    string             42    uvm_test_top.env_h.apb_agent_h.sequencer_h          
#   PSLVERR                      integral           1     'd0                                                 
#   PREADY                       integral           1     255                                                 
# ------------------------------------------------------------------------------------------------------------
# 
# UVM_INFO apb_sequence.sv(96) @ 5: uvm_test_top.env_h.apb_agent_h.sequencer_h@@apb_seq_h [APB_SINGLE_READ] Forcing PSLVERR=0 in single-read iteration
# UVM_INFO ahb_monitor.sv(63) @ 15: uvm_test_top.env_h.ahb_agent_h.mon_h [ahb_monitor] AHB monitor captured TX: 
# -----------------------------------------
# Name       Type               Size  Value
# -----------------------------------------
# mon2sb     ahb_sequence_item  -     @1013
#   RESETn   integral           1     'd0  
#   HADDR    integral           32    'h0  
#   HTRANS   integral           2     'd0  
#   HWRITE   integral           1     'd0  
#   HWDATA   integral           32    'h0  
#   HSELAHB  integral           1     'd0  
#   HREADY   integral           1     'd0  
# -----------------------------------------
# 
# UVM_INFO apb_driver.sv(52) @ 15: uvm_test_top.env_h.apb_agent_h.drv_h [apb_driver] APB driver delivered Tx: 
# ------------------------------------------------------------------------------------------------------------
# Name                           Type               Size  Value                                               
# ------------------------------------------------------------------------------------------------------------
# req                            apb_sequence_item  -     @1009                                               
#   begin_time                   time               64    5                                                   
#   depth                        int                32    'd2                                                 
#   parent sequence (name)       string             9     apb_seq_h                                           
#   parent sequence (full name)  string             52    uvm_test_top.env_h.apb_agent_h.sequencer_h.apb_seq_h
#   sequencer                    string             42    uvm_test_top.env_h.apb_agent_h.sequencer_h          
#   PSLVERR                      integral           1     'd0                                                 
#   PREADY                       integral           1     255                                                 
# ------------------------------------------------------------------------------------------------------------
# 
# UVM_INFO apb_monitor.sv(47) @ 15: uvm_test_top.env_h.apb_agent_h.mon_h [apb_monitor] APB monitor recieved TX: 
# -----------------------------------------
# Name       Type               Size  Value
# -----------------------------------------
# mon2sb     apb_sequence_item  -     @1017
#   PSLVERR  integral           1     'd0  
#   PREADY   integral           1     'd0  
# -----------------------------------------
# 
# UVM_INFO ahb_apb_scoreboard.sv(56) @ 15: uvm_test_top.env_h.sb_h [ahb_apb_scoreboard] [1] Scoreboard sampled ahb_data_pkt
# -----------------------------------------
# Name       Type               Size  Value
# -----------------------------------------
# mon2sb     ahb_sequence_item  -     @1013
#   RESETn   integral           1     'd0  
#   HADDR    integral           32    'h0  
#   HTRANS   integral           2     'd0  
#   HWRITE   integral           1     'd0  
#   HWDATA   integral           32    'h0  
#   HSELAHB  integral           1     'd0  
#   HREADY   integral           1     'd0  
# -----------------------------------------
# 
# UVM_INFO ahb_apb_scoreboard.sv(61) @ 15: uvm_test_top.env_h.sb_h [ahb_apb_scoreboard] [1] Scoreboard sampled apb_data_pkt
# -----------------------------------------
# Name       Type               Size  Value
# -----------------------------------------
# mon2sb     apb_sequence_item  -     @1017
#   PSLVERR  integral           1     'd0  
#   PREADY   integral           1     'd0  
# -----------------------------------------
# 
# UVM_INFO apb_sequence.sv(96) @ 15: uvm_test_top.env_h.apb_agent_h.sequencer_h@@apb_seq_h [APB_SINGLE_READ] Forcing PSLVERR=0 in single-read iteration
# UVM_INFO ahb_monitor.sv(63) @ 25: uvm_test_top.env_h.ahb_agent_h.mon_h [ahb_monitor] AHB monitor captured TX: 
# -----------------------------------------
# Name       Type               Size  Value
# -----------------------------------------
# mon2sb     ahb_sequence_item  -     @1025
#   RESETn   integral           1     'd0  
#   HADDR    integral           32    'h0  
#   HTRANS   integral           2     'd0  
#   HWRITE   integral           1     'd0  
#   HWDATA   integral           32    'h0  
#   HSELAHB  integral           1     'd0  
#   HREADY   integral           1     'd0  
# -----------------------------------------
# 
# UVM_INFO apb_driver.sv(52) @ 25: uvm_test_top.env_h.apb_agent_h.drv_h [apb_driver] APB driver delivered Tx: 
# ------------------------------------------------------------------------------------------------------------
# Name                           Type               Size  Value                                               
# ------------------------------------------------------------------------------------------------------------
# req                            apb_sequence_item  -     @1021                                               
#   begin_time                   time               64    15                                                  
#   depth                        int                32    'd2                                                 
#   parent sequence (name)       string             9     apb_seq_h                                           
#   parent sequence (full name)  string             52    uvm_test_top.env_h.apb_agent_h.sequencer_h.apb_seq_h
#   sequencer                    string             42    uvm_test_top.env_h.apb_agent_h.sequencer_h          
#   PSLVERR                      integral           1     'd0                                                 
#   PREADY                       integral           1     255                                                 
# ------------------------------------------------------------------------------------------------------------
# 
# UVM_INFO apb_monitor.sv(47) @ 25: uvm_test_top.env_h.apb_agent_h.mon_h [apb_monitor] APB monitor recieved TX: 
# -----------------------------------------
# Name       Type               Size  Value
# -----------------------------------------
# mon2sb     apb_sequence_item  -     @1029
#   PSLVERR  integral           1     'd0  
#   PREADY   integral           1     255  
# -----------------------------------------
# 
# UVM_INFO ahb_apb_scoreboard.sv(56) @ 25: uvm_test_top.env_h.sb_h [ahb_apb_scoreboard] [2] Scoreboard sampled ahb_data_pkt
# -----------------------------------------
# Name       Type               Size  Value
# -----------------------------------------
# mon2sb     ahb_sequence_item  -     @1025
#   RESETn   integral           1     'd0  
#   HADDR    integral           32    'h0  
#   HTRANS   integral           2     'd0  
#   HWRITE   integral           1     'd0  
#   HWDATA   integral           32    'h0  
#   HSELAHB  integral           1     'd0  
#   HREADY   integral           1     'd0  
# -----------------------------------------
# 
# UVM_INFO ahb_apb_scoreboard.sv(61) @ 25: uvm_test_top.env_h.sb_h [ahb_apb_scoreboard] [2] Scoreboard sampled apb_data_pkt
# -----------------------------------------
# Name       Type               Size  Value
# -----------------------------------------
# mon2sb     apb_sequence_item  -     @1029
#   PSLVERR  integral           1     'd0  
#   PREADY   integral           1     255  
# -----------------------------------------
# 
# UVM_INFO apb_sequence.sv(100) @ 25: uvm_test_top.env_h.apb_agent_h.sequencer_h@@apb_seq_h [APB_SINGLE_READ] Completed single_read_sequence
# UVM_INFO ahb_driver.sv(93) @ 25: uvm_test_top.env_h.ahb_agent_h.drv_h [ahb_driver] AHB driver Delivered Tx: 
# ------------------------------------------------------------------------------------------------------------
# Name                           Type               Size  Value                                               
# ------------------------------------------------------------------------------------------------------------
# req                            ahb_sequence_item  -     @952                                                
#   begin_time                   time               64    0                                                   
#   depth                        int                32    'd2                                                 
#   parent sequence (name)       string             9     ahb_seq_h                                           
#   parent sequence (full name)  string             52    uvm_test_top.env_h.ahb_agent_h.sequencer_h.ahb_seq_h
#   sequencer                    string             42    uvm_test_top.env_h.ahb_agent_h.sequencer_h          
#   RESETn                       integral           1     'd0                                                 
#   HADDR                        integral           32    'h8a2dfab5                                          
#   HTRANS                       integral           2     'd0                                                 
#   HWRITE                       integral           1     'd0                                                 
#   HWDATA                       integral           32    'h1b1351e1                                          
#   HSELAHB                      integral           1     1                                                   
#   HREADY                       integral           1     1                                                   
# ------------------------------------------------------------------------------------------------------------
# 
# UVM_INFO ahb_sequence.sv(150) @ 25: uvm_test_top.env_h.ahb_agent_h.sequencer_h@@ahb_seq_h [AHB_SINGLE_READ] Forcing (HRESETn=1, HWRITE=0, HSELAHB=1, HTRANS=10)
# UVM_INFO ahb_sequence_item.sv(53) @ 25: uvm_test_top.env_h.ahb_agent_h.sequencer_h@@ahb_seq_h.req [AHB_SEQUENCE_ITEM] Transaction [2]: ------------------------------------------------------------------------------------------------------------
# Name                           Type               Size  Value                                               
# ------------------------------------------------------------------------------------------------------------
# req                            ahb_sequence_item  -     @1034                                               
#   begin_time                   time               64    25                                                  
#   depth                        int                32    'd2                                                 
#   parent sequence (name)       string             9     ahb_seq_h                                           
#   parent sequence (full name)  string             52    uvm_test_top.env_h.ahb_agent_h.sequencer_h.ahb_seq_h
#   sequencer                    string             42    uvm_test_top.env_h.ahb_agent_h.sequencer_h          
#   RESETn                       integral           1     1                                                   
#   HADDR                        integral           32    'h8275a452                                          
#   HTRANS                       integral           2     2                                                   
#   HWRITE                       integral           1     'd0                                                 
#   HWDATA                       integral           32    'ha9ceb36a                                          
#   HSELAHB                      integral           1     1                                                   
#   HREADY                       integral           1     'd0                                                 
# ------------------------------------------------------------------------------------------------------------
# 
# UVM_INFO ahb_driver.sv(93) @ 35: uvm_test_top.env_h.ahb_agent_h.drv_h [ahb_driver] AHB driver Delivered Tx: 
# ------------------------------------------------------------------------------------------------------------
# Name                           Type               Size  Value                                               
# ------------------------------------------------------------------------------------------------------------
# req                            ahb_sequence_item  -     @1034                                               
#   begin_time                   time               64    25                                                  
#   depth                        int                32    'd2                                                 
#   parent sequence (name)       string             9     ahb_seq_h                                           
#   parent sequence (full name)  string             52    uvm_test_top.env_h.ahb_agent_h.sequencer_h.ahb_seq_h
#   sequencer                    string             42    uvm_test_top.env_h.ahb_agent_h.sequencer_h          
#   RESETn                       integral           1     1                                                   
#   HADDR                        integral           32    'h8275a452                                          
#   HTRANS                       integral           2     2                                                   
#   HWRITE                       integral           1     'd0                                                 
#   HWDATA                       integral           32    'ha9ceb36a                                          
#   HSELAHB                      integral           1     1                                                   
#   HREADY                       integral           1     1                                                   
# ------------------------------------------------------------------------------------------------------------
# 
# UVM_INFO ahb_monitor.sv(63) @ 35: uvm_test_top.env_h.ahb_agent_h.mon_h [ahb_monitor] AHB monitor captured TX: 
# -----------------------------------------
# Name       Type               Size  Value
# -----------------------------------------
# mon2sb     ahb_sequence_item  -     @1038
#   RESETn   integral           1     'd0  
#   HADDR    integral           32    'h0  
#   HTRANS   integral           2     'd0  
#   HWRITE   integral           1     'd0  
#   HWDATA   integral           32    'h0  
#   HSELAHB  integral           1     'd0  
#   HREADY   integral           1     1    
# -----------------------------------------
# 
# UVM_INFO apb_monitor.sv(47) @ 35: uvm_test_top.env_h.apb_agent_h.mon_h [apb_monitor] APB monitor recieved TX: 
# -----------------------------------------
# Name       Type               Size  Value
# -----------------------------------------
# mon2sb     apb_sequence_item  -     @1042
#   PSLVERR  integral           1     'd0  
#   PREADY   integral           1     255  
# -----------------------------------------
# 
# UVM_INFO ahb_apb_scoreboard.sv(56) @ 35: uvm_test_top.env_h.sb_h [ahb_apb_scoreboard] [3] Scoreboard sampled ahb_data_pkt
# -----------------------------------------
# Name       Type               Size  Value
# -----------------------------------------
# mon2sb     ahb_sequence_item  -     @1038
#   RESETn   integral           1     'd0  
#   HADDR    integral           32    'h0  
#   HTRANS   integral           2     'd0  
#   HWRITE   integral           1     'd0  
#   HWDATA   integral           32    'h0  
#   HSELAHB  integral           1     'd0  
#   HREADY   integral           1     1    
# -----------------------------------------
# 
# UVM_INFO ahb_apb_scoreboard.sv(61) @ 35: uvm_test_top.env_h.sb_h [ahb_apb_scoreboard] [3] Scoreboard sampled apb_data_pkt
# -----------------------------------------
# Name       Type               Size  Value
# -----------------------------------------
# mon2sb     apb_sequence_item  -     @1042
#   PSLVERR  integral           1     'd0  
#   PREADY   integral           1     255  
# -----------------------------------------
# 
# UVM_INFO ahb_sequence.sv(162) @ 35: uvm_test_top.env_h.ahb_agent_h.sequencer_h@@ahb_seq_h [AHB_SINGLE_READ] Forcing (HRESETn=1, HWRITE=0, HSELAHB=1, HTRANS=00)
# UVM_INFO ahb_sequence_item.sv(53) @ 35: uvm_test_top.env_h.ahb_agent_h.sequencer_h@@ahb_seq_h.req [AHB_SEQUENCE_ITEM] Transaction [3]: ------------------------------------------------------------------------------------------------------------
# Name                           Type               Size  Value                                               
# ------------------------------------------------------------------------------------------------------------
# req                            ahb_sequence_item  -     @1046                                               
#   begin_time                   time               64    35                                                  
#   depth                        int                32    'd2                                                 
#   parent sequence (name)       string             9     ahb_seq_h                                           
#   parent sequence (full name)  string             52    uvm_test_top.env_h.ahb_agent_h.sequencer_h.ahb_seq_h
#   sequencer                    string             42    uvm_test_top.env_h.ahb_agent_h.sequencer_h          
#   RESETn                       integral           1     1                                                   
#   HADDR                        integral           32    'h80899969                                          
#   HTRANS                       integral           2     'd0                                                 
#   HWRITE                       integral           1     'd0                                                 
#   HWDATA                       integral           32    'hccc6033a                                          
#   HSELAHB                      integral           1     1                                                   
#   HREADY                       integral           1     'd0                                                 
# ------------------------------------------------------------------------------------------------------------
# 
# UVM_INFO ahb_driver.sv(93) @ 45: uvm_test_top.env_h.ahb_agent_h.drv_h [ahb_driver] AHB driver Delivered Tx: 
# ------------------------------------------------------------------------------------------------------------
# Name                           Type               Size  Value                                               
# ------------------------------------------------------------------------------------------------------------
# req                            ahb_sequence_item  -     @1046                                               
#   begin_time                   time               64    35                                                  
#   depth                        int                32    'd2                                                 
#   parent sequence (name)       string             9     ahb_seq_h                                           
#   parent sequence (full name)  string             52    uvm_test_top.env_h.ahb_agent_h.sequencer_h.ahb_seq_h
#   sequencer                    string             42    uvm_test_top.env_h.ahb_agent_h.sequencer_h          
#   RESETn                       integral           1     1                                                   
#   HADDR                        integral           32    'h80899969                                          
#   HTRANS                       integral           2     'd0                                                 
#   HWRITE                       integral           1     'd0                                                 
#   HWDATA                       integral           32    'hccc6033a                                          
#   HSELAHB                      integral           1     1                                                   
#   HREADY                       integral           1     1                                                   
# ------------------------------------------------------------------------------------------------------------
# 
# UVM_INFO ahb_monitor.sv(63) @ 45: uvm_test_top.env_h.ahb_agent_h.mon_h [ahb_monitor] AHB monitor captured TX: 
# ----------------------------------------------
# Name       Type               Size  Value     
# ----------------------------------------------
# mon2sb     ahb_sequence_item  -     @1050     
#   RESETn   integral           1     'd0       
#   HADDR    integral           32    'h8a2dfab5
#   HTRANS   integral           2     'd0       
#   HWRITE   integral           1     'd0       
#   HWDATA   integral           32    'h0       
#   HSELAHB  integral           1     1         
#   HREADY   integral           1     1         
# ----------------------------------------------
# 
# UVM_INFO apb_monitor.sv(47) @ 45: uvm_test_top.env_h.apb_agent_h.mon_h [apb_monitor] APB monitor recieved TX: 
# -----------------------------------------
# Name       Type               Size  Value
# -----------------------------------------
# mon2sb     apb_sequence_item  -     @1054
#   PSLVERR  integral           1     'd0  
#   PREADY   integral           1     255  
# -----------------------------------------
# 
# UVM_INFO ahb_apb_scoreboard.sv(56) @ 45: uvm_test_top.env_h.sb_h [ahb_apb_scoreboard] [4] Scoreboard sampled ahb_data_pkt
# ----------------------------------------------
# Name       Type               Size  Value     
# ----------------------------------------------
# mon2sb     ahb_sequence_item  -     @1050     
#   RESETn   integral           1     'd0       
#   HADDR    integral           32    'h8a2dfab5
#   HTRANS   integral           2     'd0       
#   HWRITE   integral           1     'd0       
#   HWDATA   integral           32    'h0       
#   HSELAHB  integral           1     1         
#   HREADY   integral           1     1         
# ----------------------------------------------
# 
# UVM_INFO ahb_apb_scoreboard.sv(61) @ 45: uvm_test_top.env_h.sb_h [ahb_apb_scoreboard] [4] Scoreboard sampled apb_data_pkt
# -----------------------------------------
# Name       Type               Size  Value
# -----------------------------------------
# mon2sb     apb_sequence_item  -     @1054
#   PSLVERR  integral           1     'd0  
#   PREADY   integral           1     255  
# -----------------------------------------
# 
# UVM_INFO ahb_sequence.sv(174) @ 45: uvm_test_top.env_h.ahb_agent_h.sequencer_h@@ahb_seq_h [AHB_SINGLE_READ] Forcing (HRESETn=1, HWRITE=0, HSELAHB=1, HTRANS=11)
# UVM_INFO ahb_sequence_item.sv(53) @ 45: uvm_test_top.env_h.ahb_agent_h.sequencer_h@@ahb_seq_h.req [AHB_SEQUENCE_ITEM] Transaction [4]: ------------------------------------------------------------------------------------------------------------
# Name                           Type               Size  Value                                               
# ------------------------------------------------------------------------------------------------------------
# req                            ahb_sequence_item  -     @1058                                               
#   begin_time                   time               64    45                                                  
#   depth                        int                32    'd2                                                 
#   parent sequence (name)       string             9     ahb_seq_h                                           
#   parent sequence (full name)  string             52    uvm_test_top.env_h.ahb_agent_h.sequencer_h.ahb_seq_h
#   sequencer                    string             42    uvm_test_top.env_h.ahb_agent_h.sequencer_h          
#   RESETn                       integral           1     1                                                   
#   HADDR                        integral           32    'h85f08305                                          
#   HTRANS                       integral           2     3                                                   
#   HWRITE                       integral           1     'd0                                                 
#   HWDATA                       integral           32    'h581ddca6                                          
#   HSELAHB                      integral           1     1                                                   
#   HREADY                       integral           1     'd0                                                 
# ------------------------------------------------------------------------------------------------------------
# 
# UVM_INFO ahb_monitor.sv(63) @ 55: uvm_test_top.env_h.ahb_agent_h.mon_h [ahb_monitor] AHB monitor captured TX: 
# ----------------------------------------------
# Name       Type               Size  Value     
# ----------------------------------------------
# mon2sb     ahb_sequence_item  -     @1062     
#   RESETn   integral           1     1         
#   HADDR    integral           32    'h8275a452
#   HTRANS   integral           2     2         
#   HWRITE   integral           1     'd0       
#   HWDATA   integral           32    'h0       
#   HSELAHB  integral           1     1         
#   HREADY   integral           1     'd0       
# ----------------------------------------------
# 
# UVM_INFO apb_monitor.sv(47) @ 55: uvm_test_top.env_h.apb_agent_h.mon_h [apb_monitor] APB monitor recieved TX: 
# -----------------------------------------
# Name       Type               Size  Value
# -----------------------------------------
# mon2sb     apb_sequence_item  -     @1066
#   PSLVERR  integral           1     'd0  
#   PREADY   integral           1     255  
# -----------------------------------------
# 
# UVM_INFO ahb_apb_scoreboard.sv(56) @ 55: uvm_test_top.env_h.sb_h [ahb_apb_scoreboard] [5] Scoreboard sampled ahb_data_pkt
# ----------------------------------------------
# Name       Type               Size  Value     
# ----------------------------------------------
# mon2sb     ahb_sequence_item  -     @1062     
#   RESETn   integral           1     1         
#   HADDR    integral           32    'h8275a452
#   HTRANS   integral           2     2         
#   HWRITE   integral           1     'd0       
#   HWDATA   integral           32    'h0       
#   HSELAHB  integral           1     1         
#   HREADY   integral           1     'd0       
# ----------------------------------------------
# 
# UVM_INFO ahb_apb_scoreboard.sv(61) @ 55: uvm_test_top.env_h.sb_h [ahb_apb_scoreboard] [5] Scoreboard sampled apb_data_pkt
# -----------------------------------------
# Name       Type               Size  Value
# -----------------------------------------
# mon2sb     apb_sequence_item  -     @1066
#   PSLVERR  integral           1     'd0  
#   PREADY   integral           1     255  
# -----------------------------------------
# 
# UVM_INFO ahb_monitor.sv(63) @ 65: uvm_test_top.env_h.ahb_agent_h.mon_h [ahb_monitor] AHB monitor captured TX: 
# ----------------------------------------------
# Name       Type               Size  Value     
# ----------------------------------------------
# mon2sb     ahb_sequence_item  -     @1070     
#   RESETn   integral           1     1         
#   HADDR    integral           32    'h80899969
#   HTRANS   integral           2     'd0       
#   HWRITE   integral           1     'd0       
#   HWDATA   integral           32    'h0       
#   HSELAHB  integral           1     1         
#   HREADY   integral           1     'd0       
# ----------------------------------------------
# 
# UVM_INFO apb_monitor.sv(47) @ 65: uvm_test_top.env_h.apb_agent_h.mon_h [apb_monitor] APB monitor recieved TX: 
# -----------------------------------------
# Name       Type               Size  Value
# -----------------------------------------
# mon2sb     apb_sequence_item  -     @1074
#   PSLVERR  integral           1     'd0  
#   PREADY   integral           1     255  
# -----------------------------------------
# 
# UVM_INFO ahb_apb_scoreboard.sv(56) @ 65: uvm_test_top.env_h.sb_h [ahb_apb_scoreboard] [6] Scoreboard sampled ahb_data_pkt
# ----------------------------------------------
# Name       Type               Size  Value     
# ----------------------------------------------
# mon2sb     ahb_sequence_item  -     @1070     
#   RESETn   integral           1     1         
#   HADDR    integral           32    'h80899969
#   HTRANS   integral           2     'd0       
#   HWRITE   integral           1     'd0       
#   HWDATA   integral           32    'h0       
#   HSELAHB  integral           1     1         
#   HREADY   integral           1     'd0       
# ----------------------------------------------
# 
# UVM_INFO ahb_apb_scoreboard.sv(61) @ 65: uvm_test_top.env_h.sb_h [ahb_apb_scoreboard] [6] Scoreboard sampled apb_data_pkt
# -----------------------------------------
# Name       Type               Size  Value
# -----------------------------------------
# mon2sb     apb_sequence_item  -     @1074
#   PSLVERR  integral           1     'd0  
#   PREADY   integral           1     255  
# -----------------------------------------
# 
# UVM_INFO ahb_driver.sv(93) @ 65: uvm_test_top.env_h.ahb_agent_h.drv_h [ahb_driver] AHB driver Delivered Tx: 
# ------------------------------------------------------------------------------------------------------------
# Name                           Type               Size  Value                                               
# ------------------------------------------------------------------------------------------------------------
# req                            ahb_sequence_item  -     @1058                                               
#   begin_time                   time               64    45                                                  
#   depth                        int                32    'd2                                                 
#   parent sequence (name)       string             9     ahb_seq_h                                           
#   parent sequence (full name)  string             52    uvm_test_top.env_h.ahb_agent_h.sequencer_h.ahb_seq_h
#   sequencer                    string             42    uvm_test_top.env_h.ahb_agent_h.sequencer_h          
#   RESETn                       integral           1     1                                                   
#   HADDR                        integral           32    'h85f08305                                          
#   HTRANS                       integral           2     3                                                   
#   HWRITE                       integral           1     'd0                                                 
#   HWDATA                       integral           32    'h581ddca6                                          
#   HSELAHB                      integral           1     1                                                   
#   HREADY                       integral           1     1                                                   
# ------------------------------------------------------------------------------------------------------------
# 
# UVM_INFO ahb_sequence.sv(183) @ 65: uvm_test_top.env_h.ahb_agent_h.sequencer_h@@ahb_seq_h [AHB_SINGLE_READ] Completed single-read sequence.
# UVM_INFO ahb_monitor.sv(63) @ 75: uvm_test_top.env_h.ahb_agent_h.mon_h [ahb_monitor] AHB monitor captured TX: 
# ----------------------------------------------
# Name       Type               Size  Value     
# ----------------------------------------------
# mon2sb     ahb_sequence_item  -     @1078     
#   RESETn   integral           1     1         
#   HADDR    integral           32    'h80899969
#   HTRANS   integral           2     'd0       
#   HWRITE   integral           1     'd0       
#   HWDATA   integral           32    'h0       
#   HSELAHB  integral           1     1         
#   HREADY   integral           1     1         
# ----------------------------------------------
# 
# UVM_INFO apb_monitor.sv(47) @ 75: uvm_test_top.env_h.apb_agent_h.mon_h [apb_monitor] APB monitor recieved TX: 
# -----------------------------------------
# Name       Type               Size  Value
# -----------------------------------------
# mon2sb     apb_sequence_item  -     @1082
#   PSLVERR  integral           1     'd0  
#   PREADY   integral           1     255  
# -----------------------------------------
# 
# UVM_INFO ahb_apb_scoreboard.sv(56) @ 75: uvm_test_top.env_h.sb_h [ahb_apb_scoreboard] [7] Scoreboard sampled ahb_data_pkt
# ----------------------------------------------
# Name       Type               Size  Value     
# ----------------------------------------------
# mon2sb     ahb_sequence_item  -     @1078     
#   RESETn   integral           1     1         
#   HADDR    integral           32    'h80899969
#   HTRANS   integral           2     'd0       
#   HWRITE   integral           1     'd0       
#   HWDATA   integral           32    'h0       
#   HSELAHB  integral           1     1         
#   HREADY   integral           1     1         
# ----------------------------------------------
# 
# UVM_INFO ahb_apb_scoreboard.sv(61) @ 75: uvm_test_top.env_h.sb_h [ahb_apb_scoreboard] [7] Scoreboard sampled apb_data_pkt
# -----------------------------------------
# Name       Type               Size  Value
# -----------------------------------------
# mon2sb     apb_sequence_item  -     @1082
#   PSLVERR  integral           1     'd0  
#   PREADY   integral           1     255  
# -----------------------------------------
# 
# UVM_INFO ahb_monitor.sv(63) @ 85: uvm_test_top.env_h.ahb_agent_h.mon_h [ahb_monitor] AHB monitor captured TX: 
# ----------------------------------------------
# Name       Type               Size  Value     
# ----------------------------------------------
# mon2sb     ahb_sequence_item  -     @1086     
#   RESETn   integral           1     1         
#   HADDR    integral           32    'h85f08305
#   HTRANS   integral           2     3         
#   HWRITE   integral           1     'd0       
#   HWDATA   integral           32    'h0       
#   HSELAHB  integral           1     1         
#   HREADY   integral           1     'd0       
# ----------------------------------------------
# 
# UVM_INFO apb_monitor.sv(47) @ 85: uvm_test_top.env_h.apb_agent_h.mon_h [apb_monitor] APB monitor recieved TX: 
# -----------------------------------------
# Name       Type               Size  Value
# -----------------------------------------
# mon2sb     apb_sequence_item  -     @1090
#   PSLVERR  integral           1     'd0  
#   PREADY   integral           1     255  
# -----------------------------------------
# 
# UVM_INFO ahb_apb_scoreboard.sv(56) @ 85: uvm_test_top.env_h.sb_h [ahb_apb_scoreboard] [8] Scoreboard sampled ahb_data_pkt
# ----------------------------------------------
# Name       Type               Size  Value     
# ----------------------------------------------
# mon2sb     ahb_sequence_item  -     @1086     
#   RESETn   integral           1     1         
#   HADDR    integral           32    'h85f08305
#   HTRANS   integral           2     3         
#   HWRITE   integral           1     'd0       
#   HWDATA   integral           32    'h0       
#   HSELAHB  integral           1     1         
#   HREADY   integral           1     'd0       
# ----------------------------------------------
# 
# UVM_INFO ahb_apb_scoreboard.sv(61) @ 85: uvm_test_top.env_h.sb_h [ahb_apb_scoreboard] [8] Scoreboard sampled apb_data_pkt
# -----------------------------------------
# Name       Type               Size  Value
# -----------------------------------------
# mon2sb     apb_sequence_item  -     @1090
#   PSLVERR  integral           1     'd0  
#   PREADY   integral           1     255  
# -----------------------------------------
# 
# UVM_INFO ahb_monitor.sv(63) @ 95: uvm_test_top.env_h.ahb_agent_h.mon_h [ahb_monitor] AHB monitor captured TX: 
# ----------------------------------------------
# Name       Type               Size  Value     
# ----------------------------------------------
# mon2sb     ahb_sequence_item  -     @1094     
#   RESETn   integral           1     1         
#   HADDR    integral           32    'h85f08305
#   HTRANS   integral           2     3         
#   HWRITE   integral           1     'd0       
#   HWDATA   integral           32    'h0       
#   HSELAHB  integral           1     1         
#   HREADY   integral           1     'd0       
# ----------------------------------------------
# 
# UVM_INFO apb_monitor.sv(47) @ 95: uvm_test_top.env_h.apb_agent_h.mon_h [apb_monitor] APB monitor recieved TX: 
# -----------------------------------------
# Name       Type               Size  Value
# -----------------------------------------
# mon2sb     apb_sequence_item  -     @1098
#   PSLVERR  integral           1     'd0  
#   PREADY   integral           1     255  
# -----------------------------------------
# 
# UVM_INFO ahb_apb_scoreboard.sv(56) @ 95: uvm_test_top.env_h.sb_h [ahb_apb_scoreboard] [9] Scoreboard sampled ahb_data_pkt
# ----------------------------------------------
# Name       Type               Size  Value     
# ----------------------------------------------
# mon2sb     ahb_sequence_item  -     @1094     
#   RESETn   integral           1     1         
#   HADDR    integral           32    'h85f08305
#   HTRANS   integral           2     3         
#   HWRITE   integral           1     'd0       
#   HWDATA   integral           32    'h0       
#   HSELAHB  integral           1     1         
#   HREADY   integral           1     'd0       
# ----------------------------------------------
# 
# UVM_INFO ahb_apb_scoreboard.sv(61) @ 95: uvm_test_top.env_h.sb_h [ahb_apb_scoreboard] [9] Scoreboard sampled apb_data_pkt
# -----------------------------------------
# Name       Type               Size  Value
# -----------------------------------------
# mon2sb     apb_sequence_item  -     @1098
#   PSLVERR  integral           1     'd0  
#   PREADY   integral           1     255  
# -----------------------------------------
# 
# UVM_INFO ahb_monitor.sv(63) @ 105: uvm_test_top.env_h.ahb_agent_h.mon_h [ahb_monitor] AHB monitor captured TX: 
# ----------------------------------------------
# Name       Type               Size  Value     
# ----------------------------------------------
# mon2sb     ahb_sequence_item  -     @1102     
#   RESETn   integral           1     1         
#   HADDR    integral           32    'h85f08305
#   HTRANS   integral           2     3         
#   HWRITE   integral           1     'd0       
#   HWDATA   integral           32    'h0       
#   HSELAHB  integral           1     1         
#   HREADY   integral           1     1         
# ----------------------------------------------
# 
# UVM_INFO apb_monitor.sv(47) @ 105: uvm_test_top.env_h.apb_agent_h.mon_h [apb_monitor] APB monitor recieved TX: 
# -----------------------------------------
# Name       Type               Size  Value
# -----------------------------------------
# mon2sb     apb_sequence_item  -     @1106
#   PSLVERR  integral           1     'd0  
#   PREADY   integral           1     255  
# -----------------------------------------
# 
# UVM_INFO ahb_apb_scoreboard.sv(56) @ 105: uvm_test_top.env_h.sb_h [ahb_apb_scoreboard] [10] Scoreboard sampled ahb_data_pkt
# ----------------------------------------------
# Name       Type               Size  Value     
# ----------------------------------------------
# mon2sb     ahb_sequence_item  -     @1102     
#   RESETn   integral           1     1         
#   HADDR    integral           32    'h85f08305
#   HTRANS   integral           2     3         
#   HWRITE   integral           1     'd0       
#   HWDATA   integral           32    'h0       
#   HSELAHB  integral           1     1         
#   HREADY   integral           1     1         
# ----------------------------------------------
# 
# UVM_INFO ahb_apb_scoreboard.sv(61) @ 105: uvm_test_top.env_h.sb_h [ahb_apb_scoreboard] [10] Scoreboard sampled apb_data_pkt
# -----------------------------------------
# Name       Type               Size  Value
# -----------------------------------------
# mon2sb     apb_sequence_item  -     @1106
#   PSLVERR  integral           1     'd0  
#   PREADY   integral           1     255  
# -----------------------------------------
# 
# UVM_INFO verilog_src/uvm-1.1d/src/base/uvm_objection.svh(1267) @ 115: reporter [TEST_DONE] 'run' phase is ready to proceed to the 'extract' phase
# UVM_INFO ahb_monitor.sv(63) @ 115: uvm_test_top.env_h.ahb_agent_h.mon_h [ahb_monitor] AHB monitor captured TX: 
# ----------------------------------------------
# Name       Type               Size  Value     
# ----------------------------------------------
# mon2sb     ahb_sequence_item  -     @1110     
#   RESETn   integral           1     1         
#   HADDR    integral           32    'h85f08305
#   HTRANS   integral           2     3         
#   HWRITE   integral           1     'd0       
#   HWDATA   integral           32    'h0       
#   HSELAHB  integral           1     1         
#   HREADY   integral           1     'd0       
# ----------------------------------------------
# 
# UVM_INFO apb_monitor.sv(47) @ 115: uvm_test_top.env_h.apb_agent_h.mon_h [apb_monitor] APB monitor recieved TX: 
# -----------------------------------------
# Name       Type               Size  Value
# -----------------------------------------
# mon2sb     apb_sequence_item  -     @1114
#   PSLVERR  integral           1     'd0  
#   PREADY   integral           1     255  
# -----------------------------------------
# 
# UVM_INFO ahb_apb_scoreboard.sv(56) @ 115: uvm_test_top.env_h.sb_h [ahb_apb_scoreboard] [11] Scoreboard sampled ahb_data_pkt
# ----------------------------------------------
# Name       Type               Size  Value     
# ----------------------------------------------
# mon2sb     ahb_sequence_item  -     @1110     
#   RESETn   integral           1     1         
#   HADDR    integral           32    'h85f08305
#   HTRANS   integral           2     3         
#   HWRITE   integral           1     'd0       
#   HWDATA   integral           32    'h0       
#   HSELAHB  integral           1     1         
#   HREADY   integral           1     'd0       
# ----------------------------------------------
# 
# UVM_INFO ahb_apb_scoreboard.sv(61) @ 115: uvm_test_top.env_h.sb_h [ahb_apb_scoreboard] [11] Scoreboard sampled apb_data_pkt
# -----------------------------------------
# Name       Type               Size  Value
# -----------------------------------------
# mon2sb     apb_sequence_item  -     @1114
#   PSLVERR  integral           1     'd0  
#   PREADY   integral           1     255  
# -----------------------------------------
# 
# 
# === Scoreboard Summary ===
# AHB Packets: 11
# APB Packets: 11
# Verified Transactions:           8
# Unverified Transactions:           3
# === Coverage Report ===
# RESET: 100.000000%
# WRITE: 0.000000%
# READ: 100.000000%
# === End of Summary ===
# 
# 
# --- UVM Report Summary ---
# 
# ** Report counts by severity
# UVM_INFO :   71
# UVM_WARNING :    0
# UVM_ERROR :    0
# UVM_FATAL :    0
# ** Report counts by id
# [AHB_SEQUENCE_ITEM]     4
# [AHB_SINGLE_READ]     6
# [APB_SINGLE_READ]     5
# [Questa UVM]     2
# [RNTST]     1
# [TEST_DONE]     1
# [UVMTOP]     1
# [ahb_apb_scoreboard]    22
# [ahb_driver]     4
# [ahb_monitor]    11
# [apb_driver]     3
# [apb_monitor]    11
# ** Note: $finish    : /pkgs/mentor/questa/2021.3_1/questasim/linux_x86_64/../verilog_src/uvm-1.1d/src/base/uvm_root.svh(430)
#    Time: 115 ns  Iteration: 53  Instance: /tb_top
# End time: 21:03:13 on Mar 04,2025, Elapsed time: 0:00:05
# Errors: 0, Warnings: 0
