# vsim -c tb_top -do "vsim -Q -timescale 1ns/1ns -access +rw +UVM_TESTNAME=ahb_apb_bridge_burst_read_test +UVM_VERBOSITY=UVM_NONE -coverage all -covfile covfile.ccf -covdut ahb2apb -uvmnocdnsextra work.top; run -all; quit" 
# Start time: 16:17:47 on Mar 04,2025
# ** Note: (vsim-3812) Design is being optimized...
# //  Questa Sim-64
# //  Version 2021.3_1 linux_x86_64 Aug 15 2021
# //
# //  Copyright 1991-2021 Mentor Graphics Corporation
# //  All Rights Reserved.
# //
# //  QuestaSim and its associated documentation contain trade
# //  secrets and commercial or financial information that are the property of
# //  Mentor Graphics Corporation and are privileged, confidential,
# //  and exempt from disclosure under the Freedom of Information Act,
# //  5 U.S.C. Section 552. Furthermore, this information
# //  is prohibited from disclosure under the Trade Secrets Act,
# //  18 U.S.C. Section 1905.
# //
# Loading sv_std.std
# Loading mtiUvm.uvm_pkg(fast)
# Loading work.tb_top_sv_unit(fast)
# Loading mtiUvm.questa_uvm_pkg(fast)
# Loading work.tb_top(fast)
# Loading work.Bridge_Top(fast)
# Loading work.ahb_intf(fast)
# Loading work.apb_intf(fast)
# Loading /pkgs/mentor/questa/2021.3_1/questasim/uvm-1.1d/linux_x86_64/uvm_dpi.so
# vsim -Q -timescale 1ns/1ns -access +rw +UVM_TESTNAME=ahb_apb_bridge_burst_read_test +UVM_VERBOSITY=UVM_NONE -coverage all -covfile covfile.ccf -covdut ahb2apb -uvmnocdnsextra work.top
# ** UI-Msg: (vish-3296) Unknown option '-Q'.
# Use the -help option for complete vsim usage.
# ** UI-Msg: (vish-3296) Unknown option '-timescale'.
# Use the -help option for complete vsim usage.
# ** UI-Msg: (vish-3296) Unknown option '-access'.
# Use the -help option for complete vsim usage.
# ** UI-Msg: (vish-3296) Unknown option '-covfile'.
# Use the -help option for complete vsim usage.
# ** UI-Msg: (vish-3296) Unknown option '-covdut'.
# Use the -help option for complete vsim usage.
# ** UI-Msg: (vish-3296) Unknown option '-uvmnocdnsextra'.
# Use the -help option for complete vsim usage.
# Error loading design
#  run -all
# ----------------------------------------------------------------
# UVM-1.1d
# (C) 2007-2013 Mentor Graphics Corporation
# (C) 2007-2013 Cadence Design Systems, Inc.
# (C) 2006-2013 Synopsys, Inc.
# (C) 2011-2013 Cypress Semiconductor Corp.
# ----------------------------------------------------------------
# 
#   ***********       IMPORTANT RELEASE NOTES         ************
# 
#   You are using a version of the UVM library that has been compiled
#   with `UVM_NO_DEPRECATED undefined.
#   See http://www.eda.org/svdb/view.php?id=3313 for more details.
# 
#   You are using a version of the UVM library that has been compiled
#   with `UVM_OBJECT_MUST_HAVE_CONSTRUCTOR undefined.
#   See http://www.eda.org/svdb/view.php?id=3770 for more details.
# 
#       (Specify +UVM_NO_RELNOTES to turn off this notice)
# 
# UVM_INFO verilog_src/questa_uvm_pkg-1.2/src/questa_uvm_pkg.sv(277) @ 0: reporter [Questa UVM] QUESTA_UVM-1.2.3
# UVM_INFO verilog_src/questa_uvm_pkg-1.2/src/questa_uvm_pkg.sv(278) @ 0: reporter [Questa UVM]  questa_uvm::init(+struct)
# UVM_INFO @ 0: reporter [RNTST] Running test ahb_apb_bug_test...
# DUT_DEBUG: valid=0, Htrans=xx, Haddr=xxxxxxxx, Hreadyin=1, Hresetn=x
# DEBUG: BEFORE FSM, STATE=xxx, HADDR1=xxxxxxxx, HADDR2=xxxxxxxx, Paddr_temp=xxxxxxxx, Paddr=xxxxxxxx
# DEBUG: AFTER FSM, STATE=xxx, HADDR1=xxxxxxxx, HADDR2=xxxxxxxx, Paddr_temp=xxxxxxxx, Paddr=xxxxxxxx
# UVM_INFO @ 0: reporter [UVMTOP] UVM testbench topology:
# ------------------------------------------------------------------
# Name                       Type                        Size  Value
# ------------------------------------------------------------------
# uvm_test_top               ahb_apb_bug_test            -     @477 
#   env_h                    ahb_apb_env                 -     @491 
#     ahb_agent_h            ahb_agent                   -     @503 
#       drv_h                ahb_driver                  -     @639 
#         rsp_port           uvm_analysis_port           -     @654 
#         seq_item_port      uvm_seq_item_pull_port      -     @646 
#       mon_h                ahb_monitor                 -     @632 
#         monitor_port       uvm_analysis_port           -     @773 
#       sequencer_h          ahb_sequencer               -     @662 
#         rsp_export         uvm_analysis_export         -     @669 
#         seq_item_export    uvm_seq_item_pull_imp       -     @763 
#         arbitration_queue  array                       0     -    
#         lock_queue         array                       0     -    
#         num_last_reqs      integral                    32    'd1  
#         num_last_rsps      integral                    32    'd1  
#     apb_agent_h            apb_agent                   -     @510 
#       drv_h                apb_driver                  -     @795 
#         rsp_port           uvm_analysis_port           -     @810 
#         seq_item_port      uvm_seq_item_pull_port      -     @802 
#       mon_h                apb_monitor                 -     @788 
#         monitor_port       uvm_analysis_port           -     @929 
#       sequencer_h          apb_sequencer               -     @818 
#         rsp_export         uvm_analysis_export         -     @825 
#         seq_item_export    uvm_seq_item_pull_imp       -     @919 
#         arbitration_queue  array                       0     -    
#         lock_queue         array                       0     -    
#         num_last_reqs      integral                    32    'd1  
#         num_last_rsps      integral                    32    'd1  
#     sb_h                   ahb_apb_scoreboard          -     @517 
#       ahb_fifo             uvm_tlm_analysis_fifo #(T)  -     @524 
#         analysis_export    uvm_analysis_imp            -     @563 
#         get_ap             uvm_analysis_port           -     @555 
#         get_peek_export    uvm_get_peek_imp            -     @539 
#         put_ap             uvm_analysis_port           -     @547 
#         put_export         uvm_put_imp                 -     @531 
#       apb_fifo             uvm_tlm_analysis_fifo #(T)  -     @571 
#         analysis_export    uvm_analysis_imp            -     @610 
#         get_ap             uvm_analysis_port           -     @602 
#         get_peek_export    uvm_get_peek_imp            -     @586 
#         put_ap             uvm_analysis_port           -     @594 
#         put_export         uvm_put_imp                 -     @578 
# ------------------------------------------------------------------
# 
# UVM_INFO ahb_apb_bug_test.sv(19) @ 0: uvm_test_top [BUG_TEST] Running bug injection sequence
# UVM_INFO ahb_sequence.sv(325) @ 0: uvm_test_top.env_h.ahb_agent_h.sequencer_h@@bug_seq [BUG_SEQ] Starting bug-injection tests
# UVM_INFO ahb_sequence_item.sv(53) @ 0: uvm_test_top.env_h.ahb_agent_h.sequencer_h@@bug_seq.req [AHB_SEQUENCE_ITEM] Transaction [1]: ----------------------------------------------------------------------------------------------------------
# Name                           Type               Size  Value                                             
# ----------------------------------------------------------------------------------------------------------
# req                            ahb_sequence_item  -     @947                                              
#   begin_time                   time               64    0                                                 
#   depth                        int                32    'd2                                               
#   parent sequence (name)       string             7     bug_seq                                           
#   parent sequence (full name)  string             50    uvm_test_top.env_h.ahb_agent_h.sequencer_h.bug_seq
#   sequencer                    string             42    uvm_test_top.env_h.ahb_agent_h.sequencer_h        
#   RESETn                       integral           1     1                                                 
#   HADDR                        integral           32    'h85006177                                        
#   HTRANS                       integral           2     2                                                 
#   HWRITE                       integral           1     'd0                                               
#   HWDATA                       integral           32    'h57b7e1b0                                        
#   HSELAHB                      integral           1     1                                                 
#   HREADY                       integral           1     'd0                                               
# ----------------------------------------------------------------------------------------------------------
# 
# DUT_DEBUG: At posedge Hclk: Haddr=xxxxxxxx, Haddr1=xxxxxxxx, Haddr2=xxxxxxxx
# DUT_DEBUG: PADDR update: New=xxxxxxxx, Old=xxxxxxxx
# DEBUG: BEFORE FSM, STATE=000, HADDR1=xxxxxxxx, HADDR2=xxxxxxxx, Paddr_temp=xxxxxxxx, Paddr=xxxxxxxx
# DEBUG: AFTER FSM, STATE=000, HADDR1=xxxxxxxx, HADDR2=xxxxxxxx, Paddr_temp=xxxxxxxx, Paddr=xxxxxxxx
# DUT_DEBUG: PADDR update: New=xxxxxxxx, Old=xxxxxxxx
# DUT_DEBUG: At posedge Hclk: Haddr=xxxxxxxx, Haddr1=xxxxxxxx, Haddr2=xxxxxxxx
# UVM_INFO ahb_monitor.sv(63) @ 15: uvm_test_top.env_h.ahb_agent_h.mon_h [ahb_monitor] AHB monitor captured TX: 
# -----------------------------------------
# Name       Type               Size  Value
# -----------------------------------------
# mon2sb     ahb_sequence_item  -     @999 
#   RESETn   integral           1     'd0  
#   HADDR    integral           32    'h0  
#   HTRANS   integral           2     'd0  
#   HWRITE   integral           1     'd0  
#   HWDATA   integral           32    'h0  
#   HSELAHB  integral           1     'd0  
#   HREADY   integral           1     'd0  
# -----------------------------------------
# 
# UVM_INFO apb_monitor.sv(47) @ 15: uvm_test_top.env_h.apb_agent_h.mon_h [apb_monitor] APB monitor recieved TX: 
# -----------------------------------------
# Name       Type               Size  Value
# -----------------------------------------
# mon2sb     apb_sequence_item  -     @1003
#   PSLVERR  integral           1     'd0  
#   PREADY   integral           1     'd0  
# -----------------------------------------
# 
# UVM_INFO ahb_apb_scoreboard.sv(56) @ 15: uvm_test_top.env_h.sb_h [ahb_apb_scoreboard] [1] Scoreboard sampled ahb_data_pkt
# -----------------------------------------
# Name       Type               Size  Value
# -----------------------------------------
# mon2sb     ahb_sequence_item  -     @999 
#   RESETn   integral           1     'd0  
#   HADDR    integral           32    'h0  
#   HTRANS   integral           2     'd0  
#   HWRITE   integral           1     'd0  
#   HWDATA   integral           32    'h0  
#   HSELAHB  integral           1     'd0  
#   HREADY   integral           1     'd0  
# -----------------------------------------
# 
# UVM_INFO ahb_apb_scoreboard.sv(61) @ 15: uvm_test_top.env_h.sb_h [ahb_apb_scoreboard] [1] Scoreboard sampled apb_data_pkt
# -----------------------------------------
# Name       Type               Size  Value
# -----------------------------------------
# mon2sb     apb_sequence_item  -     @1003
#   PSLVERR  integral           1     'd0  
#   PREADY   integral           1     'd0  
# -----------------------------------------
# 
# DEBUG: BEFORE FSM, STATE=000, HADDR1=xxxxxxxx, HADDR2=xxxxxxxx, Paddr_temp=xxxxxxxx, Paddr=xxxxxxxx
# DEBUG: AFTER FSM, STATE=000, HADDR1=xxxxxxxx, HADDR2=xxxxxxxx, Paddr_temp=xxxxxxxx, Paddr=xxxxxxxx
# DUT_DEBUG: At posedge Hclk: Haddr=xxxxxxxx, Haddr1=xxxxxxxx, Haddr2=xxxxxxxx
# DUT_DEBUG: PADDR update: New=xxxxxxxx, Old=xxxxxxxx
# UVM_INFO ahb_monitor.sv(63) @ 25: uvm_test_top.env_h.ahb_agent_h.mon_h [ahb_monitor] AHB monitor captured TX: 
# -----------------------------------------
# Name       Type               Size  Value
# -----------------------------------------
# mon2sb     ahb_sequence_item  -     @1007
#   RESETn   integral           1     'd0  
#   HADDR    integral           32    'h0  
#   HTRANS   integral           2     'd0  
#   HWRITE   integral           1     'd0  
#   HWDATA   integral           32    'h0  
#   HSELAHB  integral           1     'd0  
#   HREADY   integral           1     'd0  
# -----------------------------------------
# 
# UVM_INFO apb_monitor.sv(47) @ 25: uvm_test_top.env_h.apb_agent_h.mon_h [apb_monitor] APB monitor recieved TX: 
# -----------------------------------------
# Name       Type               Size  Value
# -----------------------------------------
# mon2sb     apb_sequence_item  -     @1011
#   PSLVERR  integral           1     'd0  
#   PREADY   integral           1     'd0  
# -----------------------------------------
# 
# UVM_INFO ahb_apb_scoreboard.sv(56) @ 25: uvm_test_top.env_h.sb_h [ahb_apb_scoreboard] [2] Scoreboard sampled ahb_data_pkt
# -----------------------------------------
# Name       Type               Size  Value
# -----------------------------------------
# mon2sb     ahb_sequence_item  -     @1007
#   RESETn   integral           1     'd0  
#   HADDR    integral           32    'h0  
#   HTRANS   integral           2     'd0  
#   HWRITE   integral           1     'd0  
#   HWDATA   integral           32    'h0  
#   HSELAHB  integral           1     'd0  
#   HREADY   integral           1     'd0  
# -----------------------------------------
# 
# UVM_INFO ahb_apb_scoreboard.sv(61) @ 25: uvm_test_top.env_h.sb_h [ahb_apb_scoreboard] [2] Scoreboard sampled apb_data_pkt
# -----------------------------------------
# Name       Type               Size  Value
# -----------------------------------------
# mon2sb     apb_sequence_item  -     @1011
#   PSLVERR  integral           1     'd0  
#   PREADY   integral           1     'd0  
# -----------------------------------------
# 
# UVM_INFO ahb_driver.sv(93) @ 25: uvm_test_top.env_h.ahb_agent_h.drv_h [ahb_driver] AHB driver Delivered Tx: 
# ----------------------------------------------------------------------------------------------------------
# Name                           Type               Size  Value                                             
# ----------------------------------------------------------------------------------------------------------
# req                            ahb_sequence_item  -     @947                                              
#   begin_time                   time               64    0                                                 
#   depth                        int                32    'd2                                               
#   parent sequence (name)       string             7     bug_seq                                           
#   parent sequence (full name)  string             50    uvm_test_top.env_h.ahb_agent_h.sequencer_h.bug_seq
#   sequencer                    string             42    uvm_test_top.env_h.ahb_agent_h.sequencer_h        
#   RESETn                       integral           1     1                                                 
#   HADDR                        integral           32    'h85006177                                        
#   HTRANS                       integral           2     'd0                                               
#   HWRITE                       integral           1     'd0                                               
#   HWDATA                       integral           32    'h57b7e1b0                                        
#   HSELAHB                      integral           1     1                                                 
#   HREADY                       integral           1     1                                                 
# ----------------------------------------------------------------------------------------------------------
# 
# UVM_INFO ahb_sequence.sv(365) @ 25: uvm_test_top.env_h.ahb_agent_h.sequencer_h@@bug_seq [BUG_SEQ] Injecting HTRANS Value Corruption Bug
# UVM_INFO ahb_sequence.sv(368) @ 25: uvm_test_top.env_h.ahb_agent_h.sequencer_h@@bug_seq [BUG_SEQ] Bug-injection test sequence completed
# UVM_INFO verilog_src/uvm-1.1d/src/base/uvm_objection.svh(1267) @ 25: reporter [TEST_DONE] 'run' phase is ready to proceed to the 'extract' phase
# 
# === Scoreboard Summary ===
# AHB Packets: 2
# APB Packets: 2
# Verified Transactions:           0
# Unverified Transactions:           2
# === Coverage Report ===
# RESET: 100.000000%
# WRITE: 0.000000%
# READ: 100.000000%
# === End of Summary ===
# 
# 
# --- UVM Report Summary ---
# 
# ** Report counts by severity
# UVM_INFO :   19
# UVM_WARNING :    0
# UVM_ERROR :    0
# UVM_FATAL :    0
# ** Report counts by id
# [AHB_SEQUENCE_ITEM]     1
# [BUG_SEQ]     3
# [BUG_TEST]     1
# [Questa UVM]     2
# [RNTST]     1
# [TEST_DONE]     1
# [UVMTOP]     1
# [ahb_apb_scoreboard]     4
# [ahb_driver]     1
# [ahb_monitor]     2
# [apb_monitor]     2
# ** Note: $finish    : /pkgs/mentor/questa/2021.3_1/questasim/linux_x86_64/../verilog_src/uvm-1.1d/src/base/uvm_root.svh(430)
#    Time: 25 ns  Iteration: 63  Instance: /tb_top
# End time: 16:17:52 on Mar 04,2025, Elapsed time: 0:00:05
# Errors: 0, Warnings: 0
