# vsim -c tb_top -do "vsim -Q -timescale 1ns/1ns -access +rw +UVM_TESTNAME=ahb_apb_bridge_burst_read_test +UVM_VERBOSITY=UVM_NONE -coverage all -covfile covfile.ccf -covdut ahb2apb -uvmnocdnsextra work.top; run -all; quit" 
# Start time: 21:21:32 on Mar 04,2025
# ** Note: (vsim-3812) Design is being optimized...
# //  Questa Sim-64
# //  Version 2021.3_1 linux_x86_64 Aug 15 2021
# //
# //  Copyright 1991-2021 Mentor Graphics Corporation
# //  All Rights Reserved.
# //
# //  QuestaSim and its associated documentation contain trade
# //  secrets and commercial or financial information that are the property of
# //  Mentor Graphics Corporation and are privileged, confidential,
# //  and exempt from disclosure under the Freedom of Information Act,
# //  5 U.S.C. Section 552. Furthermore, this information
# //  is prohibited from disclosure under the Trade Secrets Act,
# //  18 U.S.C. Section 1905.
# //
# Loading sv_std.std
# Loading mtiUvm.uvm_pkg(fast)
# Loading work.tb_top_sv_unit(fast)
# Loading mtiUvm.questa_uvm_pkg(fast)
# Loading work.tb_top(fast)
# Loading work.Bridge_Top(fast)
# Loading work.ahb_intf(fast)
# Loading work.apb_intf(fast)
# Loading /pkgs/mentor/questa/2021.3_1/questasim/uvm-1.1d/linux_x86_64/uvm_dpi.so
# vsim -Q -timescale 1ns/1ns -access +rw +UVM_TESTNAME=ahb_apb_bridge_burst_read_test +UVM_VERBOSITY=UVM_NONE -coverage all -covfile covfile.ccf -covdut ahb2apb -uvmnocdnsextra work.top
# ** UI-Msg: (vish-3296) Unknown option '-Q'.
# Use the -help option for complete vsim usage.
# ** UI-Msg: (vish-3296) Unknown option '-timescale'.
# Use the -help option for complete vsim usage.
# ** UI-Msg: (vish-3296) Unknown option '-access'.
# Use the -help option for complete vsim usage.
# ** UI-Msg: (vish-3296) Unknown option '-covfile'.
# Use the -help option for complete vsim usage.
# ** UI-Msg: (vish-3296) Unknown option '-covdut'.
# Use the -help option for complete vsim usage.
# ** UI-Msg: (vish-3296) Unknown option '-uvmnocdnsextra'.
# Use the -help option for complete vsim usage.
# Error loading design
#  run -all
# ----------------------------------------------------------------
# UVM-1.1d
# (C) 2007-2013 Mentor Graphics Corporation
# (C) 2007-2013 Cadence Design Systems, Inc.
# (C) 2006-2013 Synopsys, Inc.
# (C) 2011-2013 Cypress Semiconductor Corp.
# ----------------------------------------------------------------
# 
#   ***********       IMPORTANT RELEASE NOTES         ************
# 
#   You are using a version of the UVM library that has been compiled
#   with `UVM_NO_DEPRECATED undefined.
#   See http://www.eda.org/svdb/view.php?id=3313 for more details.
# 
#   You are using a version of the UVM library that has been compiled
#   with `UVM_OBJECT_MUST_HAVE_CONSTRUCTOR undefined.
#   See http://www.eda.org/svdb/view.php?id=3770 for more details.
# 
#       (Specify +UVM_NO_RELNOTES to turn off this notice)
# 
# UVM_INFO verilog_src/questa_uvm_pkg-1.2/src/questa_uvm_pkg.sv(277) @ 0: reporter [Questa UVM] QUESTA_UVM-1.2.3
# UVM_INFO verilog_src/questa_uvm_pkg-1.2/src/questa_uvm_pkg.sv(278) @ 0: reporter [Questa UVM]  questa_uvm::init(+struct)
# UVM_INFO @ 0: reporter [RNTST] Running test ahb_apb_all_test...
# UVM_INFO @ 0: reporter [UVMTOP] UVM testbench topology:
# ------------------------------------------------------------------
# Name                       Type                        Size  Value
# ------------------------------------------------------------------
# uvm_test_top               ahb_apb_all_test            -     @477 
#   env_h                    ahb_apb_env                 -     @491 
#     ahb_agent_h            ahb_agent                   -     @531 
#       drv_h                ahb_driver                  -     @667 
#         rsp_port           uvm_analysis_port           -     @682 
#         seq_item_port      uvm_seq_item_pull_port      -     @674 
#       mon_h                ahb_monitor                 -     @660 
#         monitor_port       uvm_analysis_port           -     @801 
#       sequencer_h          ahb_sequencer               -     @690 
#         rsp_export         uvm_analysis_export         -     @697 
#         seq_item_export    uvm_seq_item_pull_imp       -     @791 
#         arbitration_queue  array                       0     -    
#         lock_queue         array                       0     -    
#         num_last_reqs      integral                    32    'd1  
#         num_last_rsps      integral                    32    'd1  
#     apb_agent_h            apb_agent                   -     @538 
#       drv_h                apb_driver                  -     @823 
#         rsp_port           uvm_analysis_port           -     @838 
#         seq_item_port      uvm_seq_item_pull_port      -     @830 
#       mon_h                apb_monitor                 -     @816 
#         monitor_port       uvm_analysis_port           -     @957 
#       sequencer_h          apb_sequencer               -     @846 
#         rsp_export         uvm_analysis_export         -     @853 
#         seq_item_export    uvm_seq_item_pull_imp       -     @947 
#         arbitration_queue  array                       0     -    
#         lock_queue         array                       0     -    
#         num_last_reqs      integral                    32    'd1  
#         num_last_rsps      integral                    32    'd1  
#     sb_h                   ahb_apb_scoreboard          -     @545 
#       ahb_fifo             uvm_tlm_analysis_fifo #(T)  -     @552 
#         analysis_export    uvm_analysis_imp            -     @591 
#         get_ap             uvm_analysis_port           -     @583 
#         get_peek_export    uvm_get_peek_imp            -     @567 
#         put_ap             uvm_analysis_port           -     @575 
#         put_export         uvm_put_imp                 -     @559 
#       apb_fifo             uvm_tlm_analysis_fifo #(T)  -     @599 
#         analysis_export    uvm_analysis_imp            -     @638 
#         get_ap             uvm_analysis_port           -     @630 
#         get_peek_export    uvm_get_peek_imp            -     @614 
#         put_ap             uvm_analysis_port           -     @622 
#         put_export         uvm_put_imp                 -     @606 
# ------------------------------------------------------------------
# 
# UVM_INFO ahb_sequence.sv(82) @ 0: uvm_test_top.env_h.ahb_agent_h.sequencer_h@@single_wr [AHB_SINGLE_WRITE] Starting single-write constraints
# UVM_INFO ahb_sequence.sv(87) @ 0: uvm_test_top.env_h.ahb_agent_h.sequencer_h@@single_wr [AHB_SINGLE_WRITE] Forcing (HRESETn=0, HWRITE=1, HTRANS=00)
# UVM_INFO ahb_sequence_item.sv(53) @ 0: uvm_test_top.env_h.ahb_agent_h.sequencer_h@@single_wr.req [AHB_SEQUENCE_ITEM] Transaction [1]: ------------------------------------------------------------------------------------------------------------
# Name                           Type               Size  Value                                               
# ------------------------------------------------------------------------------------------------------------
# req                            ahb_sequence_item  -     @975                                                
#   begin_time                   time               64    0                                                   
#   depth                        int                32    'd2                                                 
#   parent sequence (name)       string             9     single_wr                                           
#   parent sequence (full name)  string             52    uvm_test_top.env_h.ahb_agent_h.sequencer_h.single_wr
#   sequencer                    string             42    uvm_test_top.env_h.ahb_agent_h.sequencer_h          
#   RESETn                       integral           1     'd0                                                 
#   HADDR                        integral           32    'h80989648                                          
#   HTRANS                       integral           2     'd0                                                 
#   HWRITE                       integral           1     1                                                   
#   HWDATA                       integral           32    'h6bd1b7f4                                          
#   HSELAHB                      integral           1     1                                                   
#   HREADY                       integral           1     'd0                                                 
# ------------------------------------------------------------------------------------------------------------
# 
# UVM_INFO ahb_monitor.sv(63) @ 15: uvm_test_top.env_h.ahb_agent_h.mon_h [ahb_monitor] AHB monitor captured TX: 
# -----------------------------------------
# Name       Type               Size  Value
# -----------------------------------------
# mon2sb     ahb_sequence_item  -     @1027
#   RESETn   integral           1     'd0  
#   HADDR    integral           32    'h0  
#   HTRANS   integral           2     'd0  
#   HWRITE   integral           1     'd0  
#   HWDATA   integral           32    'h0  
#   HSELAHB  integral           1     'd0  
#   HREADY   integral           1     'd0  
# -----------------------------------------
# 
# UVM_INFO apb_monitor.sv(47) @ 15: uvm_test_top.env_h.apb_agent_h.mon_h [apb_monitor] APB monitor recieved TX: 
# -----------------------------------------
# Name       Type               Size  Value
# -----------------------------------------
# mon2sb     apb_sequence_item  -     @1031
#   PSLVERR  integral           1     'd0  
#   PREADY   integral           1     'd0  
# -----------------------------------------
# 
# UVM_INFO ahb_apb_scoreboard.sv(56) @ 15: uvm_test_top.env_h.sb_h [ahb_apb_scoreboard] [1] Scoreboard sampled ahb_data_pkt
# -----------------------------------------
# Name       Type               Size  Value
# -----------------------------------------
# mon2sb     ahb_sequence_item  -     @1027
#   RESETn   integral           1     'd0  
#   HADDR    integral           32    'h0  
#   HTRANS   integral           2     'd0  
#   HWRITE   integral           1     'd0  
#   HWDATA   integral           32    'h0  
#   HSELAHB  integral           1     'd0  
#   HREADY   integral           1     'd0  
# -----------------------------------------
# 
# UVM_INFO ahb_apb_scoreboard.sv(61) @ 15: uvm_test_top.env_h.sb_h [ahb_apb_scoreboard] [1] Scoreboard sampled apb_data_pkt
# -----------------------------------------
# Name       Type               Size  Value
# -----------------------------------------
# mon2sb     apb_sequence_item  -     @1031
#   PSLVERR  integral           1     'd0  
#   PREADY   integral           1     'd0  
# -----------------------------------------
# 
# UVM_INFO ahb_monitor.sv(63) @ 25: uvm_test_top.env_h.ahb_agent_h.mon_h [ahb_monitor] AHB monitor captured TX: 
# -----------------------------------------
# Name       Type               Size  Value
# -----------------------------------------
# mon2sb     ahb_sequence_item  -     @1035
#   RESETn   integral           1     'd0  
#   HADDR    integral           32    'h0  
#   HTRANS   integral           2     'd0  
#   HWRITE   integral           1     'd0  
#   HWDATA   integral           32    'h0  
#   HSELAHB  integral           1     'd0  
#   HREADY   integral           1     'd0  
# -----------------------------------------
# 
# UVM_INFO apb_monitor.sv(47) @ 25: uvm_test_top.env_h.apb_agent_h.mon_h [apb_monitor] APB monitor recieved TX: 
# -----------------------------------------
# Name       Type               Size  Value
# -----------------------------------------
# mon2sb     apb_sequence_item  -     @1039
#   PSLVERR  integral           1     'd0  
#   PREADY   integral           1     'd0  
# -----------------------------------------
# 
# UVM_INFO ahb_apb_scoreboard.sv(56) @ 25: uvm_test_top.env_h.sb_h [ahb_apb_scoreboard] [2] Scoreboard sampled ahb_data_pkt
# -----------------------------------------
# Name       Type               Size  Value
# -----------------------------------------
# mon2sb     ahb_sequence_item  -     @1035
#   RESETn   integral           1     'd0  
#   HADDR    integral           32    'h0  
#   HTRANS   integral           2     'd0  
#   HWRITE   integral           1     'd0  
#   HWDATA   integral           32    'h0  
#   HSELAHB  integral           1     'd0  
#   HREADY   integral           1     'd0  
# -----------------------------------------
# 
# UVM_INFO ahb_apb_scoreboard.sv(61) @ 25: uvm_test_top.env_h.sb_h [ahb_apb_scoreboard] [2] Scoreboard sampled apb_data_pkt
# -----------------------------------------
# Name       Type               Size  Value
# -----------------------------------------
# mon2sb     apb_sequence_item  -     @1039
#   PSLVERR  integral           1     'd0  
#   PREADY   integral           1     'd0  
# -----------------------------------------
# 
# UVM_INFO ahb_driver.sv(93) @ 25: uvm_test_top.env_h.ahb_agent_h.drv_h [ahb_driver] AHB driver Delivered Tx: 
# ------------------------------------------------------------------------------------------------------------
# Name                           Type               Size  Value                                               
# ------------------------------------------------------------------------------------------------------------
# req                            ahb_sequence_item  -     @975                                                
#   begin_time                   time               64    0                                                   
#   depth                        int                32    'd2                                                 
#   parent sequence (name)       string             9     single_wr                                           
#   parent sequence (full name)  string             52    uvm_test_top.env_h.ahb_agent_h.sequencer_h.single_wr
#   sequencer                    string             42    uvm_test_top.env_h.ahb_agent_h.sequencer_h          
#   RESETn                       integral           1     'd0                                                 
#   HADDR                        integral           32    'h80989648                                          
#   HTRANS                       integral           2     'd0                                                 
#   HWRITE                       integral           1     1                                                   
#   HWDATA                       integral           32    'h6bd1b7f4                                          
#   HSELAHB                      integral           1     1                                                   
#   HREADY                       integral           1     1                                                   
# ------------------------------------------------------------------------------------------------------------
# 
# UVM_INFO ahb_sequence.sv(98) @ 25: uvm_test_top.env_h.ahb_agent_h.sequencer_h@@single_wr [AHB_SINGLE_WRITE] Forcing (HRESETn=1, HWRITE=1, HTRANS=10)
# UVM_INFO ahb_sequence_item.sv(53) @ 25: uvm_test_top.env_h.ahb_agent_h.sequencer_h@@single_wr.req [AHB_SEQUENCE_ITEM] Transaction [2]: ------------------------------------------------------------------------------------------------------------
# Name                           Type               Size  Value                                               
# ------------------------------------------------------------------------------------------------------------
# req                            ahb_sequence_item  -     @1044                                               
#   begin_time                   time               64    25                                                  
#   depth                        int                32    'd2                                                 
#   parent sequence (name)       string             9     single_wr                                           
#   parent sequence (full name)  string             52    uvm_test_top.env_h.ahb_agent_h.sequencer_h.single_wr
#   sequencer                    string             42    uvm_test_top.env_h.ahb_agent_h.sequencer_h          
#   RESETn                       integral           1     1                                                   
#   HADDR                        integral           32    'h8671eada                                          
#   HTRANS                       integral           2     2                                                   
#   HWRITE                       integral           1     1                                                   
#   HWDATA                       integral           32    'h482cdc41                                          
#   HSELAHB                      integral           1     1                                                   
#   HREADY                       integral           1     'd0                                                 
# ------------------------------------------------------------------------------------------------------------
# 
# UVM_INFO ahb_driver.sv(93) @ 35: uvm_test_top.env_h.ahb_agent_h.drv_h [ahb_driver] AHB driver Delivered Tx: 
# ------------------------------------------------------------------------------------------------------------
# Name                           Type               Size  Value                                               
# ------------------------------------------------------------------------------------------------------------
# req                            ahb_sequence_item  -     @1044                                               
#   begin_time                   time               64    25                                                  
#   depth                        int                32    'd2                                                 
#   parent sequence (name)       string             9     single_wr                                           
#   parent sequence (full name)  string             52    uvm_test_top.env_h.ahb_agent_h.sequencer_h.single_wr
#   sequencer                    string             42    uvm_test_top.env_h.ahb_agent_h.sequencer_h          
#   RESETn                       integral           1     1                                                   
#   HADDR                        integral           32    'h8671eada                                          
#   HTRANS                       integral           2     2                                                   
#   HWRITE                       integral           1     1                                                   
#   HWDATA                       integral           32    'h482cdc41                                          
#   HSELAHB                      integral           1     1                                                   
#   HREADY                       integral           1     1                                                   
# ------------------------------------------------------------------------------------------------------------
# 
# UVM_INFO ahb_monitor.sv(63) @ 35: uvm_test_top.env_h.ahb_agent_h.mon_h [ahb_monitor] AHB monitor captured TX: 
# -----------------------------------------
# Name       Type               Size  Value
# -----------------------------------------
# mon2sb     ahb_sequence_item  -     @1048
#   RESETn   integral           1     'd0  
#   HADDR    integral           32    'h0  
#   HTRANS   integral           2     'd0  
#   HWRITE   integral           1     'd0  
#   HWDATA   integral           32    'h0  
#   HSELAHB  integral           1     'd0  
#   HREADY   integral           1     1    
# -----------------------------------------
# 
# UVM_INFO apb_monitor.sv(47) @ 35: uvm_test_top.env_h.apb_agent_h.mon_h [apb_monitor] APB monitor recieved TX: 
# -----------------------------------------
# Name       Type               Size  Value
# -----------------------------------------
# mon2sb     apb_sequence_item  -     @1052
#   PSLVERR  integral           1     'd0  
#   PREADY   integral           1     'd0  
# -----------------------------------------
# 
# UVM_INFO ahb_apb_scoreboard.sv(56) @ 35: uvm_test_top.env_h.sb_h [ahb_apb_scoreboard] [3] Scoreboard sampled ahb_data_pkt
# -----------------------------------------
# Name       Type               Size  Value
# -----------------------------------------
# mon2sb     ahb_sequence_item  -     @1048
#   RESETn   integral           1     'd0  
#   HADDR    integral           32    'h0  
#   HTRANS   integral           2     'd0  
#   HWRITE   integral           1     'd0  
#   HWDATA   integral           32    'h0  
#   HSELAHB  integral           1     'd0  
#   HREADY   integral           1     1    
# -----------------------------------------
# 
# UVM_INFO ahb_apb_scoreboard.sv(61) @ 35: uvm_test_top.env_h.sb_h [ahb_apb_scoreboard] [3] Scoreboard sampled apb_data_pkt
# -----------------------------------------
# Name       Type               Size  Value
# -----------------------------------------
# mon2sb     apb_sequence_item  -     @1052
#   PSLVERR  integral           1     'd0  
#   PREADY   integral           1     'd0  
# -----------------------------------------
# 
# UVM_INFO ahb_sequence.sv(110) @ 35: uvm_test_top.env_h.ahb_agent_h.sequencer_h@@single_wr [AHB_SINGLE_WRITE] Forcing (HRESETn=1, HWRITE=1, HTRANS=00)
# UVM_INFO ahb_sequence_item.sv(53) @ 35: uvm_test_top.env_h.ahb_agent_h.sequencer_h@@single_wr.req [AHB_SEQUENCE_ITEM] Transaction [3]: ------------------------------------------------------------------------------------------------------------
# Name                           Type               Size  Value                                               
# ------------------------------------------------------------------------------------------------------------
# req                            ahb_sequence_item  -     @1056                                               
#   begin_time                   time               64    35                                                  
#   depth                        int                32    'd2                                                 
#   parent sequence (name)       string             9     single_wr                                           
#   parent sequence (full name)  string             52    uvm_test_top.env_h.ahb_agent_h.sequencer_h.single_wr
#   sequencer                    string             42    uvm_test_top.env_h.ahb_agent_h.sequencer_h          
#   RESETn                       integral           1     1                                                   
#   HADDR                        integral           32    'h89de72b2                                          
#   HTRANS                       integral           2     'd0                                                 
#   HWRITE                       integral           1     1                                                   
#   HWDATA                       integral           32    'h4d1dc36c                                          
#   HSELAHB                      integral           1     1                                                   
#   HREADY                       integral           1     'd0                                                 
# ------------------------------------------------------------------------------------------------------------
# 
# UVM_INFO ahb_driver.sv(93) @ 45: uvm_test_top.env_h.ahb_agent_h.drv_h [ahb_driver] AHB driver Delivered Tx: 
# ------------------------------------------------------------------------------------------------------------
# Name                           Type               Size  Value                                               
# ------------------------------------------------------------------------------------------------------------
# req                            ahb_sequence_item  -     @1056                                               
#   begin_time                   time               64    35                                                  
#   depth                        int                32    'd2                                                 
#   parent sequence (name)       string             9     single_wr                                           
#   parent sequence (full name)  string             52    uvm_test_top.env_h.ahb_agent_h.sequencer_h.single_wr
#   sequencer                    string             42    uvm_test_top.env_h.ahb_agent_h.sequencer_h          
#   RESETn                       integral           1     1                                                   
#   HADDR                        integral           32    'h89de72b2                                          
#   HTRANS                       integral           2     'd0                                                 
#   HWRITE                       integral           1     1                                                   
#   HWDATA                       integral           32    'h4d1dc36c                                          
#   HSELAHB                      integral           1     1                                                   
#   HREADY                       integral           1     1                                                   
# ------------------------------------------------------------------------------------------------------------
# 
# UVM_INFO ahb_monitor.sv(63) @ 45: uvm_test_top.env_h.ahb_agent_h.mon_h [ahb_monitor] AHB monitor captured TX: 
# ----------------------------------------------
# Name       Type               Size  Value     
# ----------------------------------------------
# mon2sb     ahb_sequence_item  -     @1060     
#   RESETn   integral           1     'd0       
#   HADDR    integral           32    'h80989648
#   HTRANS   integral           2     'd0       
#   HWRITE   integral           1     1         
#   HWDATA   integral           32    'h0       
#   HSELAHB  integral           1     1         
#   HREADY   integral           1     1         
# ----------------------------------------------
# 
# UVM_INFO apb_monitor.sv(47) @ 45: uvm_test_top.env_h.apb_agent_h.mon_h [apb_monitor] APB monitor recieved TX: 
# -----------------------------------------
# Name       Type               Size  Value
# -----------------------------------------
# mon2sb     apb_sequence_item  -     @1064
#   PSLVERR  integral           1     'd0  
#   PREADY   integral           1     'd0  
# -----------------------------------------
# 
# UVM_INFO ahb_sequence.sv(119) @ 45: uvm_test_top.env_h.ahb_agent_h.sequencer_h@@single_wr [AHB_SINGLE_WRITE] Completed single-write sequence.
# UVM_INFO ahb_apb_scoreboard.sv(56) @ 45: uvm_test_top.env_h.sb_h [ahb_apb_scoreboard] [4] Scoreboard sampled ahb_data_pkt
# ----------------------------------------------
# Name       Type               Size  Value     
# ----------------------------------------------
# mon2sb     ahb_sequence_item  -     @1060     
#   RESETn   integral           1     'd0       
#   HADDR    integral           32    'h80989648
#   HTRANS   integral           2     'd0       
#   HWRITE   integral           1     1         
#   HWDATA   integral           32    'h0       
#   HSELAHB  integral           1     1         
#   HREADY   integral           1     1         
# ----------------------------------------------
# 
# UVM_INFO ahb_apb_scoreboard.sv(61) @ 45: uvm_test_top.env_h.sb_h [ahb_apb_scoreboard] [4] Scoreboard sampled apb_data_pkt
# -----------------------------------------
# Name       Type               Size  Value
# -----------------------------------------
# mon2sb     apb_sequence_item  -     @1064
#   PSLVERR  integral           1     'd0  
#   PREADY   integral           1     'd0  
# -----------------------------------------
# 
# UVM_INFO apb_sequence.sv(71) @ 45: uvm_test_top.env_h.apb_agent_h.sequencer_h@@apb_single_wr [APB_SINGLE_WRITE] Generating write sequences with PSLVERR=0 for 3 times
# UVM_INFO apb_sequence.sv(75) @ 45: uvm_test_top.env_h.apb_agent_h.sequencer_h@@apb_single_wr [APB_SINGLE_WRITE] Forcing PSLVERR=0 in single-write iteration
# UVM_INFO ahb_monitor.sv(63) @ 55: uvm_test_top.env_h.ahb_agent_h.mon_h [ahb_monitor] AHB monitor captured TX: 
# ----------------------------------------------
# Name       Type               Size  Value     
# ----------------------------------------------
# mon2sb     ahb_sequence_item  -     @1073     
#   RESETn   integral           1     1         
#   HADDR    integral           32    'h8671eada
#   HTRANS   integral           2     2         
#   HWRITE   integral           1     1         
#   HWDATA   integral           32    'h0       
#   HSELAHB  integral           1     1         
#   HREADY   integral           1     'd0       
# ----------------------------------------------
# 
# UVM_INFO apb_driver.sv(52) @ 55: uvm_test_top.env_h.apb_agent_h.drv_h [apb_driver] APB driver delivered Tx: 
# ----------------------------------------------------------------------------------------------------------------
# Name                           Type               Size  Value                                                   
# ----------------------------------------------------------------------------------------------------------------
# req                            apb_sequence_item  -     @1069                                                   
#   begin_time                   time               64    45                                                      
#   depth                        int                32    'd2                                                     
#   parent sequence (name)       string             13    apb_single_wr                                           
#   parent sequence (full name)  string             56    uvm_test_top.env_h.apb_agent_h.sequencer_h.apb_single_wr
#   sequencer                    string             42    uvm_test_top.env_h.apb_agent_h.sequencer_h              
#   PSLVERR                      integral           1     'd0                                                     
#   PREADY                       integral           1     255                                                     
# ----------------------------------------------------------------------------------------------------------------
# 
# UVM_INFO apb_monitor.sv(47) @ 55: uvm_test_top.env_h.apb_agent_h.mon_h [apb_monitor] APB monitor recieved TX: 
# -----------------------------------------
# Name       Type               Size  Value
# -----------------------------------------
# mon2sb     apb_sequence_item  -     @1077
#   PSLVERR  integral           1     'd0  
#   PREADY   integral           1     'd0  
# -----------------------------------------
# 
# UVM_INFO ahb_apb_scoreboard.sv(56) @ 55: uvm_test_top.env_h.sb_h [ahb_apb_scoreboard] [5] Scoreboard sampled ahb_data_pkt
# ----------------------------------------------
# Name       Type               Size  Value     
# ----------------------------------------------
# mon2sb     ahb_sequence_item  -     @1073     
#   RESETn   integral           1     1         
#   HADDR    integral           32    'h8671eada
#   HTRANS   integral           2     2         
#   HWRITE   integral           1     1         
#   HWDATA   integral           32    'h0       
#   HSELAHB  integral           1     1         
#   HREADY   integral           1     'd0       
# ----------------------------------------------
# 
# UVM_INFO ahb_apb_scoreboard.sv(61) @ 55: uvm_test_top.env_h.sb_h [ahb_apb_scoreboard] [5] Scoreboard sampled apb_data_pkt
# -----------------------------------------
# Name       Type               Size  Value
# -----------------------------------------
# mon2sb     apb_sequence_item  -     @1077
#   PSLVERR  integral           1     'd0  
#   PREADY   integral           1     'd0  
# -----------------------------------------
# 
# UVM_INFO apb_sequence.sv(75) @ 55: uvm_test_top.env_h.apb_agent_h.sequencer_h@@apb_single_wr [APB_SINGLE_WRITE] Forcing PSLVERR=0 in single-write iteration
# UVM_INFO ahb_monitor.sv(63) @ 65: uvm_test_top.env_h.ahb_agent_h.mon_h [ahb_monitor] AHB monitor captured TX: 
# ----------------------------------------------
# Name       Type               Size  Value     
# ----------------------------------------------
# mon2sb     ahb_sequence_item  -     @1086     
#   RESETn   integral           1     1         
#   HADDR    integral           32    'h89de72b2
#   HTRANS   integral           2     'd0       
#   HWRITE   integral           1     1         
#   HWDATA   integral           32    'h482cdc41
#   HSELAHB  integral           1     1         
#   HREADY   integral           1     1         
# ----------------------------------------------
# 
# UVM_INFO apb_driver.sv(52) @ 65: uvm_test_top.env_h.apb_agent_h.drv_h [apb_driver] APB driver delivered Tx: 
# ----------------------------------------------------------------------------------------------------------------
# Name                           Type               Size  Value                                                   
# ----------------------------------------------------------------------------------------------------------------
# req                            apb_sequence_item  -     @1082                                                   
#   begin_time                   time               64    55                                                      
#   depth                        int                32    'd2                                                     
#   parent sequence (name)       string             13    apb_single_wr                                           
#   parent sequence (full name)  string             56    uvm_test_top.env_h.apb_agent_h.sequencer_h.apb_single_wr
#   sequencer                    string             42    uvm_test_top.env_h.apb_agent_h.sequencer_h              
#   PSLVERR                      integral           1     'd0                                                     
#   PREADY                       integral           1     255                                                     
# ----------------------------------------------------------------------------------------------------------------
# 
# UVM_INFO apb_monitor.sv(47) @ 65: uvm_test_top.env_h.apb_agent_h.mon_h [apb_monitor] APB monitor recieved TX: 
# -----------------------------------------
# Name       Type               Size  Value
# -----------------------------------------
# mon2sb     apb_sequence_item  -     @1090
#   PSLVERR  integral           1     'd0  
#   PREADY   integral           1     'd0  
# -----------------------------------------
# 
# UVM_INFO ahb_apb_scoreboard.sv(56) @ 65: uvm_test_top.env_h.sb_h [ahb_apb_scoreboard] [6] Scoreboard sampled ahb_data_pkt
# ----------------------------------------------
# Name       Type               Size  Value     
# ----------------------------------------------
# mon2sb     ahb_sequence_item  -     @1086     
#   RESETn   integral           1     1         
#   HADDR    integral           32    'h89de72b2
#   HTRANS   integral           2     'd0       
#   HWRITE   integral           1     1         
#   HWDATA   integral           32    'h482cdc41
#   HSELAHB  integral           1     1         
#   HREADY   integral           1     1         
# ----------------------------------------------
# 
# UVM_INFO ahb_apb_scoreboard.sv(61) @ 65: uvm_test_top.env_h.sb_h [ahb_apb_scoreboard] [6] Scoreboard sampled apb_data_pkt
# -----------------------------------------
# Name       Type               Size  Value
# -----------------------------------------
# mon2sb     apb_sequence_item  -     @1090
#   PSLVERR  integral           1     'd0  
#   PREADY   integral           1     'd0  
# -----------------------------------------
# 
# UVM_INFO apb_sequence.sv(75) @ 65: uvm_test_top.env_h.apb_agent_h.sequencer_h@@apb_single_wr [APB_SINGLE_WRITE] Forcing PSLVERR=0 in single-write iteration
# UVM_INFO ahb_monitor.sv(63) @ 75: uvm_test_top.env_h.ahb_agent_h.mon_h [ahb_monitor] AHB monitor captured TX: 
# ----------------------------------------------
# Name       Type               Size  Value     
# ----------------------------------------------
# mon2sb     ahb_sequence_item  -     @1098     
#   RESETn   integral           1     1         
#   HADDR    integral           32    'h89de72b2
#   HTRANS   integral           2     'd0       
#   HWRITE   integral           1     1         
#   HWDATA   integral           32    'h482cdc41
#   HSELAHB  integral           1     1         
#   HREADY   integral           1     'd0       
# ----------------------------------------------
# 
# UVM_INFO apb_driver.sv(52) @ 75: uvm_test_top.env_h.apb_agent_h.drv_h [apb_driver] APB driver delivered Tx: 
# ----------------------------------------------------------------------------------------------------------------
# Name                           Type               Size  Value                                                   
# ----------------------------------------------------------------------------------------------------------------
# req                            apb_sequence_item  -     @1094                                                   
#   begin_time                   time               64    65                                                      
#   depth                        int                32    'd2                                                     
#   parent sequence (name)       string             13    apb_single_wr                                           
#   parent sequence (full name)  string             56    uvm_test_top.env_h.apb_agent_h.sequencer_h.apb_single_wr
#   sequencer                    string             42    uvm_test_top.env_h.apb_agent_h.sequencer_h              
#   PSLVERR                      integral           1     'd0                                                     
#   PREADY                       integral           1     255                                                     
# ----------------------------------------------------------------------------------------------------------------
# 
# UVM_INFO apb_monitor.sv(47) @ 75: uvm_test_top.env_h.apb_agent_h.mon_h [apb_monitor] APB monitor recieved TX: 
# -----------------------------------------
# Name       Type               Size  Value
# -----------------------------------------
# mon2sb     apb_sequence_item  -     @1102
#   PSLVERR  integral           1     'd0  
#   PREADY   integral           1     255  
# -----------------------------------------
# 
# UVM_INFO ahb_apb_scoreboard.sv(56) @ 75: uvm_test_top.env_h.sb_h [ahb_apb_scoreboard] [7] Scoreboard sampled ahb_data_pkt
# ----------------------------------------------
# Name       Type               Size  Value     
# ----------------------------------------------
# mon2sb     ahb_sequence_item  -     @1098     
#   RESETn   integral           1     1         
#   HADDR    integral           32    'h89de72b2
#   HTRANS   integral           2     'd0       
#   HWRITE   integral           1     1         
#   HWDATA   integral           32    'h482cdc41
#   HSELAHB  integral           1     1         
#   HREADY   integral           1     'd0       
# ----------------------------------------------
# 
# UVM_INFO ahb_apb_scoreboard.sv(61) @ 75: uvm_test_top.env_h.sb_h [ahb_apb_scoreboard] [7] Scoreboard sampled apb_data_pkt
# -----------------------------------------
# Name       Type               Size  Value
# -----------------------------------------
# mon2sb     apb_sequence_item  -     @1102
#   PSLVERR  integral           1     'd0  
#   PREADY   integral           1     255  
# -----------------------------------------
# 
# UVM_INFO apb_sequence.sv(79) @ 75: uvm_test_top.env_h.apb_agent_h.sequencer_h@@apb_single_wr [APB_SINGLE_WRITE] Completed single_write_sequence
# UVM_INFO ahb_sequence.sv(134) @ 75: uvm_test_top.env_h.ahb_agent_h.sequencer_h@@single_rd [AHB_SINGLE_READ] Starting single-read constraints
# UVM_INFO ahb_sequence.sv(139) @ 75: uvm_test_top.env_h.ahb_agent_h.sequencer_h@@single_rd [AHB_SINGLE_READ] Forcing (HRESETn=0, HWRITE=0, HTRANS=00)
# UVM_INFO ahb_sequence_item.sv(53) @ 75: uvm_test_top.env_h.ahb_agent_h.sequencer_h@@single_rd.req [AHB_SEQUENCE_ITEM] Transaction [4]: ------------------------------------------------------------------------------------------------------------
# Name                           Type               Size  Value                                               
# ------------------------------------------------------------------------------------------------------------
# req                            ahb_sequence_item  -     @1106                                               
#   begin_time                   time               64    75                                                  
#   depth                        int                32    'd2                                                 
#   parent sequence (name)       string             9     single_rd                                           
#   parent sequence (full name)  string             52    uvm_test_top.env_h.ahb_agent_h.sequencer_h.single_rd
#   sequencer                    string             42    uvm_test_top.env_h.ahb_agent_h.sequencer_h          
#   RESETn                       integral           1     'd0                                                 
#   HADDR                        integral           32    'h808f0edb                                          
#   HTRANS                       integral           2     'd0                                                 
#   HWRITE                       integral           1     'd0                                                 
#   HWDATA                       integral           32    'h682afce1                                          
#   HSELAHB                      integral           1     1                                                   
#   HREADY                       integral           1     'd0                                                 
# ------------------------------------------------------------------------------------------------------------
# 
# UVM_INFO ahb_driver.sv(93) @ 85: uvm_test_top.env_h.ahb_agent_h.drv_h [ahb_driver] AHB driver Delivered Tx: 
# ------------------------------------------------------------------------------------------------------------
# Name                           Type               Size  Value                                               
# ------------------------------------------------------------------------------------------------------------
# req                            ahb_sequence_item  -     @1106                                               
#   begin_time                   time               64    75                                                  
#   depth                        int                32    'd2                                                 
#   parent sequence (name)       string             9     single_rd                                           
#   parent sequence (full name)  string             52    uvm_test_top.env_h.ahb_agent_h.sequencer_h.single_rd
#   sequencer                    string             42    uvm_test_top.env_h.ahb_agent_h.sequencer_h          
#   RESETn                       integral           1     'd0                                                 
#   HADDR                        integral           32    'h808f0edb                                          
#   HTRANS                       integral           2     'd0                                                 
#   HWRITE                       integral           1     'd0                                                 
#   HWDATA                       integral           32    'h682afce1                                          
#   HSELAHB                      integral           1     1                                                   
#   HREADY                       integral           1     1                                                   
# ------------------------------------------------------------------------------------------------------------
# 
# UVM_INFO ahb_monitor.sv(63) @ 85: uvm_test_top.env_h.ahb_agent_h.mon_h [ahb_monitor] AHB monitor captured TX: 
# ----------------------------------------------
# Name       Type               Size  Value     
# ----------------------------------------------
# mon2sb     ahb_sequence_item  -     @1110     
#   RESETn   integral           1     1         
#   HADDR    integral           32    'h89de72b2
#   HTRANS   integral           2     'd0       
#   HWRITE   integral           1     1         
#   HWDATA   integral           32    'h482cdc41
#   HSELAHB  integral           1     1         
#   HREADY   integral           1     1         
# ----------------------------------------------
# 
# UVM_INFO apb_monitor.sv(47) @ 85: uvm_test_top.env_h.apb_agent_h.mon_h [apb_monitor] APB monitor recieved TX: 
# -----------------------------------------
# Name       Type               Size  Value
# -----------------------------------------
# mon2sb     apb_sequence_item  -     @1114
#   PSLVERR  integral           1     'd0  
#   PREADY   integral           1     255  
# -----------------------------------------
# 
# UVM_INFO ahb_apb_scoreboard.sv(56) @ 85: uvm_test_top.env_h.sb_h [ahb_apb_scoreboard] [8] Scoreboard sampled ahb_data_pkt
# ----------------------------------------------
# Name       Type               Size  Value     
# ----------------------------------------------
# mon2sb     ahb_sequence_item  -     @1110     
#   RESETn   integral           1     1         
#   HADDR    integral           32    'h89de72b2
#   HTRANS   integral           2     'd0       
#   HWRITE   integral           1     1         
#   HWDATA   integral           32    'h482cdc41
#   HSELAHB  integral           1     1         
#   HREADY   integral           1     1         
# ----------------------------------------------
# 
# UVM_INFO ahb_apb_scoreboard.sv(61) @ 85: uvm_test_top.env_h.sb_h [ahb_apb_scoreboard] [8] Scoreboard sampled apb_data_pkt
# -----------------------------------------
# Name       Type               Size  Value
# -----------------------------------------
# mon2sb     apb_sequence_item  -     @1114
#   PSLVERR  integral           1     'd0  
#   PREADY   integral           1     255  
# -----------------------------------------
# 
# UVM_INFO ahb_sequence.sv(150) @ 85: uvm_test_top.env_h.ahb_agent_h.sequencer_h@@single_rd [AHB_SINGLE_READ] Forcing (HRESETn=1, HWRITE=0, HSELAHB=1, HTRANS=10)
# UVM_INFO ahb_sequence_item.sv(53) @ 85: uvm_test_top.env_h.ahb_agent_h.sequencer_h@@single_rd.req [AHB_SEQUENCE_ITEM] Transaction [5]: ------------------------------------------------------------------------------------------------------------
# Name                           Type               Size  Value                                               
# ------------------------------------------------------------------------------------------------------------
# req                            ahb_sequence_item  -     @1118                                               
#   begin_time                   time               64    85                                                  
#   depth                        int                32    'd2                                                 
#   parent sequence (name)       string             9     single_rd                                           
#   parent sequence (full name)  string             52    uvm_test_top.env_h.ahb_agent_h.sequencer_h.single_rd
#   sequencer                    string             42    uvm_test_top.env_h.ahb_agent_h.sequencer_h          
#   RESETn                       integral           1     1                                                   
#   HADDR                        integral           32    'h88a67f53                                          
#   HTRANS                       integral           2     2                                                   
#   HWRITE                       integral           1     'd0                                                 
#   HWDATA                       integral           32    'h2dcacb63                                          
#   HSELAHB                      integral           1     1                                                   
#   HREADY                       integral           1     'd0                                                 
# ------------------------------------------------------------------------------------------------------------
# 
# UVM_INFO ahb_monitor.sv(63) @ 95: uvm_test_top.env_h.ahb_agent_h.mon_h [ahb_monitor] AHB monitor captured TX: 
# ----------------------------------------------
# Name       Type               Size  Value     
# ----------------------------------------------
# mon2sb     ahb_sequence_item  -     @1122     
#   RESETn   integral           1     1         
#   HADDR    integral           32    'h89de72b2
#   HTRANS   integral           2     'd0       
#   HWRITE   integral           1     1         
#   HWDATA   integral           32    'h482cdc41
#   HSELAHB  integral           1     1         
#   HREADY   integral           1     'd0       
# ----------------------------------------------
# 
# UVM_INFO apb_monitor.sv(47) @ 95: uvm_test_top.env_h.apb_agent_h.mon_h [apb_monitor] APB monitor recieved TX: 
# -----------------------------------------
# Name       Type               Size  Value
# -----------------------------------------
# mon2sb     apb_sequence_item  -     @1126
#   PSLVERR  integral           1     'd0  
#   PREADY   integral           1     255  
# -----------------------------------------
# 
# UVM_INFO ahb_apb_scoreboard.sv(56) @ 95: uvm_test_top.env_h.sb_h [ahb_apb_scoreboard] [9] Scoreboard sampled ahb_data_pkt
# ----------------------------------------------
# Name       Type               Size  Value     
# ----------------------------------------------
# mon2sb     ahb_sequence_item  -     @1122     
#   RESETn   integral           1     1         
#   HADDR    integral           32    'h89de72b2
#   HTRANS   integral           2     'd0       
#   HWRITE   integral           1     1         
#   HWDATA   integral           32    'h482cdc41
#   HSELAHB  integral           1     1         
#   HREADY   integral           1     'd0       
# ----------------------------------------------
# 
# UVM_INFO ahb_apb_scoreboard.sv(61) @ 95: uvm_test_top.env_h.sb_h [ahb_apb_scoreboard] [9] Scoreboard sampled apb_data_pkt
# -----------------------------------------
# Name       Type               Size  Value
# -----------------------------------------
# mon2sb     apb_sequence_item  -     @1126
#   PSLVERR  integral           1     'd0  
#   PREADY   integral           1     255  
# -----------------------------------------
# 
# UVM_INFO ahb_driver.sv(93) @ 95: uvm_test_top.env_h.ahb_agent_h.drv_h [ahb_driver] AHB driver Delivered Tx: 
# ------------------------------------------------------------------------------------------------------------
# Name                           Type               Size  Value                                               
# ------------------------------------------------------------------------------------------------------------
# req                            ahb_sequence_item  -     @1118                                               
#   begin_time                   time               64    85                                                  
#   depth                        int                32    'd2                                                 
#   parent sequence (name)       string             9     single_rd                                           
#   parent sequence (full name)  string             52    uvm_test_top.env_h.ahb_agent_h.sequencer_h.single_rd
#   sequencer                    string             42    uvm_test_top.env_h.ahb_agent_h.sequencer_h          
#   RESETn                       integral           1     1                                                   
#   HADDR                        integral           32    'h88a67f53                                          
#   HTRANS                       integral           2     2                                                   
#   HWRITE                       integral           1     'd0                                                 
#   HWDATA                       integral           32    'h2dcacb63                                          
#   HSELAHB                      integral           1     1                                                   
#   HREADY                       integral           1     1                                                   
# ------------------------------------------------------------------------------------------------------------
# 
# UVM_INFO ahb_sequence.sv(162) @ 95: uvm_test_top.env_h.ahb_agent_h.sequencer_h@@single_rd [AHB_SINGLE_READ] Forcing (HRESETn=1, HWRITE=0, HSELAHB=1, HTRANS=00)
# UVM_INFO ahb_sequence_item.sv(53) @ 95: uvm_test_top.env_h.ahb_agent_h.sequencer_h@@single_rd.req [AHB_SEQUENCE_ITEM] Transaction [6]: ------------------------------------------------------------------------------------------------------------
# Name                           Type               Size  Value                                               
# ------------------------------------------------------------------------------------------------------------
# req                            ahb_sequence_item  -     @1130                                               
#   begin_time                   time               64    95                                                  
#   depth                        int                32    'd2                                                 
#   parent sequence (name)       string             9     single_rd                                           
#   parent sequence (full name)  string             52    uvm_test_top.env_h.ahb_agent_h.sequencer_h.single_rd
#   sequencer                    string             42    uvm_test_top.env_h.ahb_agent_h.sequencer_h          
#   RESETn                       integral           1     1                                                   
#   HADDR                        integral           32    'h8838992e                                          
#   HTRANS                       integral           2     'd0                                                 
#   HWRITE                       integral           1     'd0                                                 
#   HWDATA                       integral           32    'hcee40fdc                                          
#   HSELAHB                      integral           1     1                                                   
#   HREADY                       integral           1     'd0                                                 
# ------------------------------------------------------------------------------------------------------------
# 
# UVM_INFO ahb_driver.sv(93) @ 105: uvm_test_top.env_h.ahb_agent_h.drv_h [ahb_driver] AHB driver Delivered Tx: 
# ------------------------------------------------------------------------------------------------------------
# Name                           Type               Size  Value                                               
# ------------------------------------------------------------------------------------------------------------
# req                            ahb_sequence_item  -     @1130                                               
#   begin_time                   time               64    95                                                  
#   depth                        int                32    'd2                                                 
#   parent sequence (name)       string             9     single_rd                                           
#   parent sequence (full name)  string             52    uvm_test_top.env_h.ahb_agent_h.sequencer_h.single_rd
#   sequencer                    string             42    uvm_test_top.env_h.ahb_agent_h.sequencer_h          
#   RESETn                       integral           1     1                                                   
#   HADDR                        integral           32    'h8838992e                                          
#   HTRANS                       integral           2     'd0                                                 
#   HWRITE                       integral           1     'd0                                                 
#   HWDATA                       integral           32    'hcee40fdc                                          
#   HSELAHB                      integral           1     1                                                   
#   HREADY                       integral           1     1                                                   
# ------------------------------------------------------------------------------------------------------------
# 
# UVM_INFO ahb_monitor.sv(63) @ 105: uvm_test_top.env_h.ahb_agent_h.mon_h [ahb_monitor] AHB monitor captured TX: 
# ----------------------------------------------
# Name       Type               Size  Value     
# ----------------------------------------------
# mon2sb     ahb_sequence_item  -     @1134     
#   RESETn   integral           1     'd0       
#   HADDR    integral           32    'h808f0edb
#   HTRANS   integral           2     'd0       
#   HWRITE   integral           1     'd0       
#   HWDATA   integral           32    'h0       
#   HSELAHB  integral           1     1         
#   HREADY   integral           1     1         
# ----------------------------------------------
# 
# UVM_INFO apb_monitor.sv(47) @ 105: uvm_test_top.env_h.apb_agent_h.mon_h [apb_monitor] APB monitor recieved TX: 
# -----------------------------------------
# Name       Type               Size  Value
# -----------------------------------------
# mon2sb     apb_sequence_item  -     @1138
#   PSLVERR  integral           1     'd0  
#   PREADY   integral           1     255  
# -----------------------------------------
# 
# UVM_INFO ahb_apb_scoreboard.sv(56) @ 105: uvm_test_top.env_h.sb_h [ahb_apb_scoreboard] [10] Scoreboard sampled ahb_data_pkt
# ----------------------------------------------
# Name       Type               Size  Value     
# ----------------------------------------------
# mon2sb     ahb_sequence_item  -     @1134     
#   RESETn   integral           1     'd0       
#   HADDR    integral           32    'h808f0edb
#   HTRANS   integral           2     'd0       
#   HWRITE   integral           1     'd0       
#   HWDATA   integral           32    'h0       
#   HSELAHB  integral           1     1         
#   HREADY   integral           1     1         
# ----------------------------------------------
# 
# UVM_INFO ahb_apb_scoreboard.sv(61) @ 105: uvm_test_top.env_h.sb_h [ahb_apb_scoreboard] [10] Scoreboard sampled apb_data_pkt
# -----------------------------------------
# Name       Type               Size  Value
# -----------------------------------------
# mon2sb     apb_sequence_item  -     @1138
#   PSLVERR  integral           1     'd0  
#   PREADY   integral           1     255  
# -----------------------------------------
# 
# UVM_INFO ahb_sequence.sv(174) @ 105: uvm_test_top.env_h.ahb_agent_h.sequencer_h@@single_rd [AHB_SINGLE_READ] Forcing (HRESETn=1, HWRITE=0, HSELAHB=1, HTRANS=11)
# UVM_INFO ahb_sequence_item.sv(53) @ 105: uvm_test_top.env_h.ahb_agent_h.sequencer_h@@single_rd.req [AHB_SEQUENCE_ITEM] Transaction [7]: ------------------------------------------------------------------------------------------------------------
# Name                           Type               Size  Value                                               
# ------------------------------------------------------------------------------------------------------------
# req                            ahb_sequence_item  -     @1142                                               
#   begin_time                   time               64    105                                                 
#   depth                        int                32    'd2                                                 
#   parent sequence (name)       string             9     single_rd                                           
#   parent sequence (full name)  string             52    uvm_test_top.env_h.ahb_agent_h.sequencer_h.single_rd
#   sequencer                    string             42    uvm_test_top.env_h.ahb_agent_h.sequencer_h          
#   RESETn                       integral           1     1                                                   
#   HADDR                        integral           32    'h897f47de                                          
#   HTRANS                       integral           2     3                                                   
#   HWRITE                       integral           1     'd0                                                 
#   HWDATA                       integral           32    'h9a45b75e                                          
#   HSELAHB                      integral           1     1                                                   
#   HREADY                       integral           1     'd0                                                 
# ------------------------------------------------------------------------------------------------------------
# 
# UVM_INFO ahb_monitor.sv(63) @ 115: uvm_test_top.env_h.ahb_agent_h.mon_h [ahb_monitor] AHB monitor captured TX: 
# ----------------------------------------------
# Name       Type               Size  Value     
# ----------------------------------------------
# mon2sb     ahb_sequence_item  -     @1146     
#   RESETn   integral           1     1         
#   HADDR    integral           32    'h88a67f53
#   HTRANS   integral           2     2         
#   HWRITE   integral           1     'd0       
#   HWDATA   integral           32    'h0       
#   HSELAHB  integral           1     1         
#   HREADY   integral           1     'd0       
# ----------------------------------------------
# 
# UVM_INFO apb_monitor.sv(47) @ 115: uvm_test_top.env_h.apb_agent_h.mon_h [apb_monitor] APB monitor recieved TX: 
# -----------------------------------------
# Name       Type               Size  Value
# -----------------------------------------
# mon2sb     apb_sequence_item  -     @1150
#   PSLVERR  integral           1     'd0  
#   PREADY   integral           1     255  
# -----------------------------------------
# 
# UVM_INFO ahb_apb_scoreboard.sv(56) @ 115: uvm_test_top.env_h.sb_h [ahb_apb_scoreboard] [11] Scoreboard sampled ahb_data_pkt
# ----------------------------------------------
# Name       Type               Size  Value     
# ----------------------------------------------
# mon2sb     ahb_sequence_item  -     @1146     
#   RESETn   integral           1     1         
#   HADDR    integral           32    'h88a67f53
#   HTRANS   integral           2     2         
#   HWRITE   integral           1     'd0       
#   HWDATA   integral           32    'h0       
#   HSELAHB  integral           1     1         
#   HREADY   integral           1     'd0       
# ----------------------------------------------
# 
# UVM_INFO ahb_apb_scoreboard.sv(61) @ 115: uvm_test_top.env_h.sb_h [ahb_apb_scoreboard] [11] Scoreboard sampled apb_data_pkt
# -----------------------------------------
# Name       Type               Size  Value
# -----------------------------------------
# mon2sb     apb_sequence_item  -     @1150
#   PSLVERR  integral           1     'd0  
#   PREADY   integral           1     255  
# -----------------------------------------
# 
# UVM_INFO ahb_monitor.sv(63) @ 125: uvm_test_top.env_h.ahb_agent_h.mon_h [ahb_monitor] AHB monitor captured TX: 
# ----------------------------------------------
# Name       Type               Size  Value     
# ----------------------------------------------
# mon2sb     ahb_sequence_item  -     @1154     
#   RESETn   integral           1     1         
#   HADDR    integral           32    'h8838992e
#   HTRANS   integral           2     'd0       
#   HWRITE   integral           1     'd0       
#   HWDATA   integral           32    'h0       
#   HSELAHB  integral           1     1         
#   HREADY   integral           1     'd0       
# ----------------------------------------------
# 
# UVM_INFO apb_monitor.sv(47) @ 125: uvm_test_top.env_h.apb_agent_h.mon_h [apb_monitor] APB monitor recieved TX: 
# -----------------------------------------
# Name       Type               Size  Value
# -----------------------------------------
# mon2sb     apb_sequence_item  -     @1158
#   PSLVERR  integral           1     'd0  
#   PREADY   integral           1     255  
# -----------------------------------------
# 
# UVM_INFO ahb_apb_scoreboard.sv(56) @ 125: uvm_test_top.env_h.sb_h [ahb_apb_scoreboard] [12] Scoreboard sampled ahb_data_pkt
# ----------------------------------------------
# Name       Type               Size  Value     
# ----------------------------------------------
# mon2sb     ahb_sequence_item  -     @1154     
#   RESETn   integral           1     1         
#   HADDR    integral           32    'h8838992e
#   HTRANS   integral           2     'd0       
#   HWRITE   integral           1     'd0       
#   HWDATA   integral           32    'h0       
#   HSELAHB  integral           1     1         
#   HREADY   integral           1     'd0       
# ----------------------------------------------
# 
# UVM_INFO ahb_apb_scoreboard.sv(61) @ 125: uvm_test_top.env_h.sb_h [ahb_apb_scoreboard] [12] Scoreboard sampled apb_data_pkt
# -----------------------------------------
# Name       Type               Size  Value
# -----------------------------------------
# mon2sb     apb_sequence_item  -     @1158
#   PSLVERR  integral           1     'd0  
#   PREADY   integral           1     255  
# -----------------------------------------
# 
# UVM_INFO ahb_driver.sv(93) @ 125: uvm_test_top.env_h.ahb_agent_h.drv_h [ahb_driver] AHB driver Delivered Tx: 
# ------------------------------------------------------------------------------------------------------------
# Name                           Type               Size  Value                                               
# ------------------------------------------------------------------------------------------------------------
# req                            ahb_sequence_item  -     @1142                                               
#   begin_time                   time               64    105                                                 
#   depth                        int                32    'd2                                                 
#   parent sequence (name)       string             9     single_rd                                           
#   parent sequence (full name)  string             52    uvm_test_top.env_h.ahb_agent_h.sequencer_h.single_rd
#   sequencer                    string             42    uvm_test_top.env_h.ahb_agent_h.sequencer_h          
#   RESETn                       integral           1     1                                                   
#   HADDR                        integral           32    'h897f47de                                          
#   HTRANS                       integral           2     3                                                   
#   HWRITE                       integral           1     'd0                                                 
#   HWDATA                       integral           32    'h9a45b75e                                          
#   HSELAHB                      integral           1     1                                                   
#   HREADY                       integral           1     1                                                   
# ------------------------------------------------------------------------------------------------------------
# 
# UVM_INFO ahb_sequence.sv(183) @ 125: uvm_test_top.env_h.ahb_agent_h.sequencer_h@@single_rd [AHB_SINGLE_READ] Completed single-read sequence.
# UVM_INFO apb_sequence.sv(92) @ 125: uvm_test_top.env_h.apb_agent_h.sequencer_h@@apb_single_rd [APB_SINGLE_READ] Generating read sequences with PSLVERR=0 for 3 times
# UVM_INFO apb_sequence.sv(96) @ 125: uvm_test_top.env_h.apb_agent_h.sequencer_h@@apb_single_rd [APB_SINGLE_READ] Forcing PSLVERR=0 in single-read iteration
# UVM_INFO ahb_monitor.sv(63) @ 135: uvm_test_top.env_h.ahb_agent_h.mon_h [ahb_monitor] AHB monitor captured TX: 
# ----------------------------------------------
# Name       Type               Size  Value     
# ----------------------------------------------
# mon2sb     ahb_sequence_item  -     @1166     
#   RESETn   integral           1     1         
#   HADDR    integral           32    'h8838992e
#   HTRANS   integral           2     'd0       
#   HWRITE   integral           1     'd0       
#   HWDATA   integral           32    'h0       
#   HSELAHB  integral           1     1         
#   HREADY   integral           1     1         
# ----------------------------------------------
# 
# UVM_INFO apb_driver.sv(52) @ 135: uvm_test_top.env_h.apb_agent_h.drv_h [apb_driver] APB driver delivered Tx: 
# ----------------------------------------------------------------------------------------------------------------
# Name                           Type               Size  Value                                                   
# ----------------------------------------------------------------------------------------------------------------
# req                            apb_sequence_item  -     @1162                                                   
#   begin_time                   time               64    125                                                     
#   depth                        int                32    'd2                                                     
#   parent sequence (name)       string             13    apb_single_rd                                           
#   parent sequence (full name)  string             56    uvm_test_top.env_h.apb_agent_h.sequencer_h.apb_single_rd
#   sequencer                    string             42    uvm_test_top.env_h.apb_agent_h.sequencer_h              
#   PSLVERR                      integral           1     'd0                                                     
#   PREADY                       integral           1     255                                                     
# ----------------------------------------------------------------------------------------------------------------
# 
# UVM_INFO apb_monitor.sv(47) @ 135: uvm_test_top.env_h.apb_agent_h.mon_h [apb_monitor] APB monitor recieved TX: 
# -----------------------------------------
# Name       Type               Size  Value
# -----------------------------------------
# mon2sb     apb_sequence_item  -     @1170
#   PSLVERR  integral           1     'd0  
#   PREADY   integral           1     255  
# -----------------------------------------
# 
# UVM_INFO ahb_apb_scoreboard.sv(56) @ 135: uvm_test_top.env_h.sb_h [ahb_apb_scoreboard] [13] Scoreboard sampled ahb_data_pkt
# ----------------------------------------------
# Name       Type               Size  Value     
# ----------------------------------------------
# mon2sb     ahb_sequence_item  -     @1166     
#   RESETn   integral           1     1         
#   HADDR    integral           32    'h8838992e
#   HTRANS   integral           2     'd0       
#   HWRITE   integral           1     'd0       
#   HWDATA   integral           32    'h0       
#   HSELAHB  integral           1     1         
#   HREADY   integral           1     1         
# ----------------------------------------------
# 
# UVM_INFO ahb_apb_scoreboard.sv(61) @ 135: uvm_test_top.env_h.sb_h [ahb_apb_scoreboard] [13] Scoreboard sampled apb_data_pkt
# -----------------------------------------
# Name       Type               Size  Value
# -----------------------------------------
# mon2sb     apb_sequence_item  -     @1170
#   PSLVERR  integral           1     'd0  
#   PREADY   integral           1     255  
# -----------------------------------------
# 
# UVM_INFO apb_sequence.sv(96) @ 135: uvm_test_top.env_h.apb_agent_h.sequencer_h@@apb_single_rd [APB_SINGLE_READ] Forcing PSLVERR=0 in single-read iteration
# UVM_INFO ahb_monitor.sv(63) @ 145: uvm_test_top.env_h.ahb_agent_h.mon_h [ahb_monitor] AHB monitor captured TX: 
# ----------------------------------------------
# Name       Type               Size  Value     
# ----------------------------------------------
# mon2sb     ahb_sequence_item  -     @1178     
#   RESETn   integral           1     1         
#   HADDR    integral           32    'h897f47de
#   HTRANS   integral           2     3         
#   HWRITE   integral           1     'd0       
#   HWDATA   integral           32    'h0       
#   HSELAHB  integral           1     1         
#   HREADY   integral           1     'd0       
# ----------------------------------------------
# 
# UVM_INFO apb_driver.sv(52) @ 145: uvm_test_top.env_h.apb_agent_h.drv_h [apb_driver] APB driver delivered Tx: 
# ----------------------------------------------------------------------------------------------------------------
# Name                           Type               Size  Value                                                   
# ----------------------------------------------------------------------------------------------------------------
# req                            apb_sequence_item  -     @1174                                                   
#   begin_time                   time               64    135                                                     
#   depth                        int                32    'd2                                                     
#   parent sequence (name)       string             13    apb_single_rd                                           
#   parent sequence (full name)  string             56    uvm_test_top.env_h.apb_agent_h.sequencer_h.apb_single_rd
#   sequencer                    string             42    uvm_test_top.env_h.apb_agent_h.sequencer_h              
#   PSLVERR                      integral           1     'd0                                                     
#   PREADY                       integral           1     255                                                     
# ----------------------------------------------------------------------------------------------------------------
# 
# UVM_INFO apb_monitor.sv(47) @ 145: uvm_test_top.env_h.apb_agent_h.mon_h [apb_monitor] APB monitor recieved TX: 
# -----------------------------------------
# Name       Type               Size  Value
# -----------------------------------------
# mon2sb     apb_sequence_item  -     @1182
#   PSLVERR  integral           1     'd0  
#   PREADY   integral           1     255  
# -----------------------------------------
# 
# UVM_INFO ahb_apb_scoreboard.sv(56) @ 145: uvm_test_top.env_h.sb_h [ahb_apb_scoreboard] [14] Scoreboard sampled ahb_data_pkt
# ----------------------------------------------
# Name       Type               Size  Value     
# ----------------------------------------------
# mon2sb     ahb_sequence_item  -     @1178     
#   RESETn   integral           1     1         
#   HADDR    integral           32    'h897f47de
#   HTRANS   integral           2     3         
#   HWRITE   integral           1     'd0       
#   HWDATA   integral           32    'h0       
#   HSELAHB  integral           1     1         
#   HREADY   integral           1     'd0       
# ----------------------------------------------
# 
# UVM_INFO ahb_apb_scoreboard.sv(61) @ 145: uvm_test_top.env_h.sb_h [ahb_apb_scoreboard] [14] Scoreboard sampled apb_data_pkt
# -----------------------------------------
# Name       Type               Size  Value
# -----------------------------------------
# mon2sb     apb_sequence_item  -     @1182
#   PSLVERR  integral           1     'd0  
#   PREADY   integral           1     255  
# -----------------------------------------
# 
# UVM_INFO apb_sequence.sv(96) @ 145: uvm_test_top.env_h.apb_agent_h.sequencer_h@@apb_single_rd [APB_SINGLE_READ] Forcing PSLVERR=0 in single-read iteration
# UVM_INFO ahb_monitor.sv(63) @ 155: uvm_test_top.env_h.ahb_agent_h.mon_h [ahb_monitor] AHB monitor captured TX: 
# ----------------------------------------------
# Name       Type               Size  Value     
# ----------------------------------------------
# mon2sb     ahb_sequence_item  -     @1190     
#   RESETn   integral           1     1         
#   HADDR    integral           32    'h897f47de
#   HTRANS   integral           2     3         
#   HWRITE   integral           1     'd0       
#   HWDATA   integral           32    'h0       
#   HSELAHB  integral           1     1         
#   HREADY   integral           1     'd0       
# ----------------------------------------------
# 
# UVM_INFO apb_driver.sv(52) @ 155: uvm_test_top.env_h.apb_agent_h.drv_h [apb_driver] APB driver delivered Tx: 
# ----------------------------------------------------------------------------------------------------------------
# Name                           Type               Size  Value                                                   
# ----------------------------------------------------------------------------------------------------------------
# req                            apb_sequence_item  -     @1186                                                   
#   begin_time                   time               64    145                                                     
#   depth                        int                32    'd2                                                     
#   parent sequence (name)       string             13    apb_single_rd                                           
#   parent sequence (full name)  string             56    uvm_test_top.env_h.apb_agent_h.sequencer_h.apb_single_rd
#   sequencer                    string             42    uvm_test_top.env_h.apb_agent_h.sequencer_h              
#   PSLVERR                      integral           1     'd0                                                     
#   PREADY                       integral           1     255                                                     
# ----------------------------------------------------------------------------------------------------------------
# 
# UVM_INFO apb_monitor.sv(47) @ 155: uvm_test_top.env_h.apb_agent_h.mon_h [apb_monitor] APB monitor recieved TX: 
# -----------------------------------------
# Name       Type               Size  Value
# -----------------------------------------
# mon2sb     apb_sequence_item  -     @1194
#   PSLVERR  integral           1     'd0  
#   PREADY   integral           1     255  
# -----------------------------------------
# 
# UVM_INFO ahb_apb_scoreboard.sv(56) @ 155: uvm_test_top.env_h.sb_h [ahb_apb_scoreboard] [15] Scoreboard sampled ahb_data_pkt
# ----------------------------------------------
# Name       Type               Size  Value     
# ----------------------------------------------
# mon2sb     ahb_sequence_item  -     @1190     
#   RESETn   integral           1     1         
#   HADDR    integral           32    'h897f47de
#   HTRANS   integral           2     3         
#   HWRITE   integral           1     'd0       
#   HWDATA   integral           32    'h0       
#   HSELAHB  integral           1     1         
#   HREADY   integral           1     'd0       
# ----------------------------------------------
# 
# UVM_INFO ahb_apb_scoreboard.sv(61) @ 155: uvm_test_top.env_h.sb_h [ahb_apb_scoreboard] [15] Scoreboard sampled apb_data_pkt
# -----------------------------------------
# Name       Type               Size  Value
# -----------------------------------------
# mon2sb     apb_sequence_item  -     @1194
#   PSLVERR  integral           1     'd0  
#   PREADY   integral           1     255  
# -----------------------------------------
# 
# UVM_INFO apb_sequence.sv(100) @ 155: uvm_test_top.env_h.apb_agent_h.sequencer_h@@apb_single_rd [APB_SINGLE_READ] Completed single_read_sequence
# UVM_INFO ahb_sequence.sv(199) @ 155: uvm_test_top.env_h.ahb_agent_h.sequencer_h@@burst_wr [AHB_BURST_WRITE] Generating specific burst write constraints
# UVM_INFO ahb_sequence.sv(204) @ 155: uvm_test_top.env_h.ahb_agent_h.sequencer_h@@burst_wr [AHB_BURST_WRITE] Forcing (HRESETn=0, HWRITE=1, HTRANS=00)
# UVM_INFO ahb_sequence_item.sv(53) @ 155: uvm_test_top.env_h.ahb_agent_h.sequencer_h@@burst_wr.req [AHB_SEQUENCE_ITEM] Transaction [8]: -----------------------------------------------------------------------------------------------------------
# Name                           Type               Size  Value                                              
# -----------------------------------------------------------------------------------------------------------
# req                            ahb_sequence_item  -     @1198                                              
#   begin_time                   time               64    155                                                
#   depth                        int                32    'd2                                                
#   parent sequence (name)       string             8     burst_wr                                           
#   parent sequence (full name)  string             51    uvm_test_top.env_h.ahb_agent_h.sequencer_h.burst_wr
#   sequencer                    string             42    uvm_test_top.env_h.ahb_agent_h.sequencer_h         
#   RESETn                       integral           1     'd0                                                
#   HADDR                        integral           32    'h877dd716                                         
#   HTRANS                       integral           2     'd0                                                
#   HWRITE                       integral           1     1                                                  
#   HWDATA                       integral           32    'hc9e9bfa9                                         
#   HSELAHB                      integral           1     1                                                  
#   HREADY                       integral           1     'd0                                                
# -----------------------------------------------------------------------------------------------------------
# 
# UVM_INFO ahb_driver.sv(93) @ 165: uvm_test_top.env_h.ahb_agent_h.drv_h [ahb_driver] AHB driver Delivered Tx: 
# -----------------------------------------------------------------------------------------------------------
# Name                           Type               Size  Value                                              
# -----------------------------------------------------------------------------------------------------------
# req                            ahb_sequence_item  -     @1198                                              
#   begin_time                   time               64    155                                                
#   depth                        int                32    'd2                                                
#   parent sequence (name)       string             8     burst_wr                                           
#   parent sequence (full name)  string             51    uvm_test_top.env_h.ahb_agent_h.sequencer_h.burst_wr
#   sequencer                    string             42    uvm_test_top.env_h.ahb_agent_h.sequencer_h         
#   RESETn                       integral           1     'd0                                                
#   HADDR                        integral           32    'h877dd716                                         
#   HTRANS                       integral           2     'd0                                                
#   HWRITE                       integral           1     1                                                  
#   HWDATA                       integral           32    'hc9e9bfa9                                         
#   HSELAHB                      integral           1     1                                                  
#   HREADY                       integral           1     1                                                  
# -----------------------------------------------------------------------------------------------------------
# 
# UVM_INFO ahb_monitor.sv(63) @ 165: uvm_test_top.env_h.ahb_agent_h.mon_h [ahb_monitor] AHB monitor captured TX: 
# ----------------------------------------------
# Name       Type               Size  Value     
# ----------------------------------------------
# mon2sb     ahb_sequence_item  -     @1202     
#   RESETn   integral           1     1         
#   HADDR    integral           32    'h897f47de
#   HTRANS   integral           2     3         
#   HWRITE   integral           1     'd0       
#   HWDATA   integral           32    'h0       
#   HSELAHB  integral           1     1         
#   HREADY   integral           1     1         
# ----------------------------------------------
# 
# UVM_INFO apb_monitor.sv(47) @ 165: uvm_test_top.env_h.apb_agent_h.mon_h [apb_monitor] APB monitor recieved TX: 
# -----------------------------------------
# Name       Type               Size  Value
# -----------------------------------------
# mon2sb     apb_sequence_item  -     @1206
#   PSLVERR  integral           1     'd0  
#   PREADY   integral           1     255  
# -----------------------------------------
# 
# UVM_INFO ahb_apb_scoreboard.sv(56) @ 165: uvm_test_top.env_h.sb_h [ahb_apb_scoreboard] [16] Scoreboard sampled ahb_data_pkt
# ----------------------------------------------
# Name       Type               Size  Value     
# ----------------------------------------------
# mon2sb     ahb_sequence_item  -     @1202     
#   RESETn   integral           1     1         
#   HADDR    integral           32    'h897f47de
#   HTRANS   integral           2     3         
#   HWRITE   integral           1     'd0       
#   HWDATA   integral           32    'h0       
#   HSELAHB  integral           1     1         
#   HREADY   integral           1     1         
# ----------------------------------------------
# 
# UVM_INFO ahb_apb_scoreboard.sv(61) @ 165: uvm_test_top.env_h.sb_h [ahb_apb_scoreboard] [16] Scoreboard sampled apb_data_pkt
# -----------------------------------------
# Name       Type               Size  Value
# -----------------------------------------
# mon2sb     apb_sequence_item  -     @1206
#   PSLVERR  integral           1     'd0  
#   PREADY   integral           1     255  
# -----------------------------------------
# 
# UVM_INFO ahb_sequence.sv(215) @ 165: uvm_test_top.env_h.ahb_agent_h.sequencer_h@@burst_wr [AHB_BURST_WRITE] Forcing (HRESETn=1, HWRITE=1, HSELAHB=1, HTRANS=10)
# UVM_INFO ahb_sequence_item.sv(53) @ 165: uvm_test_top.env_h.ahb_agent_h.sequencer_h@@burst_wr.req [AHB_SEQUENCE_ITEM] Transaction [9]: -----------------------------------------------------------------------------------------------------------
# Name                           Type               Size  Value                                              
# -----------------------------------------------------------------------------------------------------------
# req                            ahb_sequence_item  -     @1210                                              
#   begin_time                   time               64    165                                                
#   depth                        int                32    'd2                                                
#   parent sequence (name)       string             8     burst_wr                                           
#   parent sequence (full name)  string             51    uvm_test_top.env_h.ahb_agent_h.sequencer_h.burst_wr
#   sequencer                    string             42    uvm_test_top.env_h.ahb_agent_h.sequencer_h         
#   RESETn                       integral           1     1                                                  
#   HADDR                        integral           32    'h81823d64                                         
#   HTRANS                       integral           2     2                                                  
#   HWRITE                       integral           1     1                                                  
#   HWDATA                       integral           32    'hc8d6e63c                                         
#   HSELAHB                      integral           1     1                                                  
#   HREADY                       integral           1     'd0                                                
# -----------------------------------------------------------------------------------------------------------
# 
# UVM_INFO ahb_monitor.sv(63) @ 175: uvm_test_top.env_h.ahb_agent_h.mon_h [ahb_monitor] AHB monitor captured TX: 
# ----------------------------------------------
# Name       Type               Size  Value     
# ----------------------------------------------
# mon2sb     ahb_sequence_item  -     @1214     
#   RESETn   integral           1     1         
#   HADDR    integral           32    'h897f47de
#   HTRANS   integral           2     3         
#   HWRITE   integral           1     'd0       
#   HWDATA   integral           32    'h0       
#   HSELAHB  integral           1     1         
#   HREADY   integral           1     'd0       
# ----------------------------------------------
# 
# UVM_INFO apb_monitor.sv(47) @ 175: uvm_test_top.env_h.apb_agent_h.mon_h [apb_monitor] APB monitor recieved TX: 
# -----------------------------------------
# Name       Type               Size  Value
# -----------------------------------------
# mon2sb     apb_sequence_item  -     @1218
#   PSLVERR  integral           1     'd0  
#   PREADY   integral           1     255  
# -----------------------------------------
# 
# UVM_INFO ahb_apb_scoreboard.sv(56) @ 175: uvm_test_top.env_h.sb_h [ahb_apb_scoreboard] [17] Scoreboard sampled ahb_data_pkt
# ----------------------------------------------
# Name       Type               Size  Value     
# ----------------------------------------------
# mon2sb     ahb_sequence_item  -     @1214     
#   RESETn   integral           1     1         
#   HADDR    integral           32    'h897f47de
#   HTRANS   integral           2     3         
#   HWRITE   integral           1     'd0       
#   HWDATA   integral           32    'h0       
#   HSELAHB  integral           1     1         
#   HREADY   integral           1     'd0       
# ----------------------------------------------
# 
# UVM_INFO ahb_apb_scoreboard.sv(61) @ 175: uvm_test_top.env_h.sb_h [ahb_apb_scoreboard] [17] Scoreboard sampled apb_data_pkt
# -----------------------------------------
# Name       Type               Size  Value
# -----------------------------------------
# mon2sb     apb_sequence_item  -     @1218
#   PSLVERR  integral           1     'd0  
#   PREADY   integral           1     255  
# -----------------------------------------
# 
# UVM_INFO ahb_driver.sv(93) @ 175: uvm_test_top.env_h.ahb_agent_h.drv_h [ahb_driver] AHB driver Delivered Tx: 
# -----------------------------------------------------------------------------------------------------------
# Name                           Type               Size  Value                                              
# -----------------------------------------------------------------------------------------------------------
# req                            ahb_sequence_item  -     @1210                                              
#   begin_time                   time               64    165                                                
#   depth                        int                32    'd2                                                
#   parent sequence (name)       string             8     burst_wr                                           
#   parent sequence (full name)  string             51    uvm_test_top.env_h.ahb_agent_h.sequencer_h.burst_wr
#   sequencer                    string             42    uvm_test_top.env_h.ahb_agent_h.sequencer_h         
#   RESETn                       integral           1     1                                                  
#   HADDR                        integral           32    'h81823d64                                         
#   HTRANS                       integral           2     2                                                  
#   HWRITE                       integral           1     1                                                  
#   HWDATA                       integral           32    'hc8d6e63c                                         
#   HSELAHB                      integral           1     1                                                  
#   HREADY                       integral           1     1                                                  
# -----------------------------------------------------------------------------------------------------------
# 
# UVM_INFO ahb_sequence.sv(228) @ 175: uvm_test_top.env_h.ahb_agent_h.sequencer_h@@burst_wr [AHB_BURST_WRITE] Forcing (HRESETn=1, HWRITE=1, HSELAHB=1, HTRANS=11)
# UVM_INFO ahb_sequence_item.sv(53) @ 175: uvm_test_top.env_h.ahb_agent_h.sequencer_h@@burst_wr.req [AHB_SEQUENCE_ITEM] Transaction [10]: -----------------------------------------------------------------------------------------------------------
# Name                           Type               Size  Value                                              
# -----------------------------------------------------------------------------------------------------------
# req                            ahb_sequence_item  -     @1222                                              
#   begin_time                   time               64    175                                                
#   depth                        int                32    'd2                                                
#   parent sequence (name)       string             8     burst_wr                                           
#   parent sequence (full name)  string             51    uvm_test_top.env_h.ahb_agent_h.sequencer_h.burst_wr
#   sequencer                    string             42    uvm_test_top.env_h.ahb_agent_h.sequencer_h         
#   RESETn                       integral           1     1                                                  
#   HADDR                        integral           32    'h8a9b5649                                         
#   HTRANS                       integral           2     3                                                  
#   HWRITE                       integral           1     1                                                  
#   HWDATA                       integral           32    'hb32563c2                                         
#   HSELAHB                      integral           1     1                                                  
#   HREADY                       integral           1     'd0                                                
# -----------------------------------------------------------------------------------------------------------
# 
# UVM_INFO ahb_driver.sv(93) @ 185: uvm_test_top.env_h.ahb_agent_h.drv_h [ahb_driver] AHB driver Delivered Tx: 
# -----------------------------------------------------------------------------------------------------------
# Name                           Type               Size  Value                                              
# -----------------------------------------------------------------------------------------------------------
# req                            ahb_sequence_item  -     @1222                                              
#   begin_time                   time               64    175                                                
#   depth                        int                32    'd2                                                
#   parent sequence (name)       string             8     burst_wr                                           
#   parent sequence (full name)  string             51    uvm_test_top.env_h.ahb_agent_h.sequencer_h.burst_wr
#   sequencer                    string             42    uvm_test_top.env_h.ahb_agent_h.sequencer_h         
#   RESETn                       integral           1     1                                                  
#   HADDR                        integral           32    'h8a9b5649                                         
#   HTRANS                       integral           2     3                                                  
#   HWRITE                       integral           1     1                                                  
#   HWDATA                       integral           32    'hb32563c2                                         
#   HSELAHB                      integral           1     1                                                  
#   HREADY                       integral           1     1                                                  
# -----------------------------------------------------------------------------------------------------------
# 
# UVM_INFO ahb_monitor.sv(63) @ 185: uvm_test_top.env_h.ahb_agent_h.mon_h [ahb_monitor] AHB monitor captured TX: 
# ----------------------------------------------
# Name       Type               Size  Value     
# ----------------------------------------------
# mon2sb     ahb_sequence_item  -     @1226     
#   RESETn   integral           1     'd0       
#   HADDR    integral           32    'h877dd716
#   HTRANS   integral           2     'd0       
#   HWRITE   integral           1     1         
#   HWDATA   integral           32    'h0       
#   HSELAHB  integral           1     1         
#   HREADY   integral           1     1         
# ----------------------------------------------
# 
# UVM_INFO apb_monitor.sv(47) @ 185: uvm_test_top.env_h.apb_agent_h.mon_h [apb_monitor] APB monitor recieved TX: 
# -----------------------------------------
# Name       Type               Size  Value
# -----------------------------------------
# mon2sb     apb_sequence_item  -     @1230
#   PSLVERR  integral           1     'd0  
#   PREADY   integral           1     255  
# -----------------------------------------
# 
# UVM_INFO ahb_apb_scoreboard.sv(56) @ 185: uvm_test_top.env_h.sb_h [ahb_apb_scoreboard] [18] Scoreboard sampled ahb_data_pkt
# ----------------------------------------------
# Name       Type               Size  Value     
# ----------------------------------------------
# mon2sb     ahb_sequence_item  -     @1226     
#   RESETn   integral           1     'd0       
#   HADDR    integral           32    'h877dd716
#   HTRANS   integral           2     'd0       
#   HWRITE   integral           1     1         
#   HWDATA   integral           32    'h0       
#   HSELAHB  integral           1     1         
#   HREADY   integral           1     1         
# ----------------------------------------------
# 
# UVM_INFO ahb_apb_scoreboard.sv(61) @ 185: uvm_test_top.env_h.sb_h [ahb_apb_scoreboard] [18] Scoreboard sampled apb_data_pkt
# -----------------------------------------
# Name       Type               Size  Value
# -----------------------------------------
# mon2sb     apb_sequence_item  -     @1230
#   PSLVERR  integral           1     'd0  
#   PREADY   integral           1     255  
